 ****** HSPICE -- Q-2020.03-SP2-2 linux64 (Nov  1 2020) ******                  
  Copyright (c) 1986 - 2025 by Synopsys, Inc. All Rights Reserved.              
  This software and the associated documentation are proprietary
  to Synopsys, Inc. This software may only be used in accordance
  with the terms and conditions of a written license agreement with
  Synopsys, Inc. All other use, reproduction, or distribution of
  this software is strictly prohibited.
  Input File: SRAM_WNM_test.sp                                                  
  Command line options: /RAID2/cad/synopsys/hspice/2020.03-sp2-2/hspice/linux64/hspice -i SRAM_WNM_test.sp -o SRAM_WNM_test.lis
  Start time: Mon Mar 24 15:48:09 2025
 lic:  
 lic: FLEXlm: SDK_12.6 
 lic: USER:   es25MCS042           HOSTNAME: ee28 
 lic: HOSTID: "d85ed3efc19a"       PID:      44048 
 lic: Using FLEXlm license file: 
 lic: 26585@lshc 
 lic: Checkout 1 hspice 
 lic: License/Maintenance for hspice will expire on 14-may-2025/2024.09 
 lic: 176(in_use)/1100(total) FLOATING license(s) on SERVER 26585@lshc 
 lic:   
  
      
             
 Warning:'Floating bulk' occurs 1 times
 Summary of floating bulk:
 -----------------------
 |Node      |Device    |
 |----------+----------|
 |x         |mpr       |
 -----------------------
              
 *****************************************************************
 ******  option summary
 ******
 runlvl  = 3         bypass  = 2.0000    
 ******
 .title noise margin in write operation

 ****** dc transfer curves tnom=  25.000 temp=  25.000 ******
x

 volt         voltage    voltage    voltage    voltage   
             q          qb         gl         gr         
 -494.97475m  105.5790m  471.3055m -228.6945m  805.5790m 
 -494.87475m  105.5899m  471.2667m -228.5918m  805.4485m 
 -494.77475m  105.6008m  471.2280m -228.4892m  805.3179m 
 -494.67475m  105.6117m  471.1892m -228.3865m  805.1874m 
 -494.57475m  105.6226m  471.1505m -228.2838m  805.0569m 
 -494.47475m  105.6335m  471.1117m -228.1812m  804.9264m 
 -494.37475m  105.6445m  471.0729m -228.0786m  804.7959m 
 -494.27475m  105.6554m  471.0340m -227.9760m  804.6654m 
 -494.17475m  105.6663m  470.9952m -227.8734m  804.5350m 
 -494.07475m  105.6773m  470.9563m -227.7709m  804.4045m 
 -493.97475m  105.6883m  470.9175m -227.6683m  804.2740m 
 -493.87475m  105.6992m  470.8786m -227.5658m  804.1436m 
 -493.77475m  105.7102m  470.8396m -227.4633m  804.0131m 
 -493.67475m  105.7212m  470.8007m -227.3608m  803.8827m 
 -493.57475m  105.7322m  470.7617m -227.2584m  803.7523m 
 -493.47475m  105.7432m  470.7228m -227.1559m  803.6219m 
 -493.37475m  105.7542m  470.6838m -227.0535m  803.4915m 
 -493.27475m  105.7652m  470.6448m -226.9511m  803.3610m 
 -493.17475m  105.7762m  470.6057m -226.8487m  803.2307m 
 -493.07475m  105.7873m  470.5667m -226.7463m  803.1003m 
 -492.97475m  105.7983m  470.5276m -226.6439m  802.9699m 
 -492.87475m  105.8094m  470.4886m -226.5416m  802.8395m 
 -492.77475m  105.8204m  470.4495m -226.4393m  802.7091m 
 -492.67475m  105.8315m  470.4103m -226.3370m  802.5788m 
 -492.57475m  105.8425m  470.3712m -226.2347m  802.4484m 
 -492.47475m  105.8536m  470.3321m -226.1324m  802.3181m 
 -492.37475m  105.8647m  470.2929m -226.0302m  802.1878m 
 -492.27475m  105.8758m  470.2537m -225.9279m  802.0574m 
 -492.17475m  105.8869m  470.2145m -225.8257m  801.9271m 
 -492.07475m  105.8980m  470.1753m -225.7235m  801.7968m 
 -491.97475m  105.9091m  470.1360m -225.6214m  801.6665m 
 -491.87475m  105.9203m  470.0967m -225.5192m  801.5362m 
 -491.77475m  105.9314m  470.0575m -225.4171m  801.4059m 
 -491.67475m  105.9426m  470.0182m -225.3149m  801.2756m 
 -491.57475m  105.9537m  469.9788m -225.2128m  801.1454m 
 -491.47475m  105.9649m  469.9395m -225.1107m  801.0151m 
 -491.37475m  105.9760m  469.9001m -225.0087m  800.8849m 
 -491.27475m  105.9872m  469.8608m -224.9066m  800.7546m 
 -491.17475m  105.9984m  469.8214m -224.8046m  800.6244m 
 -491.07475m  106.0096m  469.7820m -224.7026m  800.4941m 
 -490.97475m  106.0208m  469.7425m -224.6006m  800.3639m 
 -490.87475m  106.0320m  469.7031m -224.4986m  800.2337m 
 -490.77475m  106.0432m  469.6636m -224.3967m  800.1035m 
 -490.67475m  106.0544m  469.6241m -224.2947m  799.9733m 
 -490.57475m  106.0656m  469.5846m -224.1928m  799.8431m 
 -490.47475m  106.0769m  469.5451m -224.0909m  799.7129m 
 -490.37475m  106.0881m  469.5056m -223.9890m  799.5828m 
 -490.27475m  106.0994m  469.4660m -223.8872m  799.4526m 
 -490.17475m  106.1107m  469.4265m -223.7853m  799.3224m 
 -490.07475m  106.1219m  469.3869m -223.6835m  799.1923m 
 -489.97475m  106.1332m  469.3472m -223.5817m  799.0621m 
 -489.87475m  106.1445m  469.3076m -223.4799m  798.9320m 
 -489.77475m  106.1558m  469.2680m -223.3781m  798.8019m 
 -489.67475m  106.1671m  469.2283m -223.2764m  798.6718m 
 -489.57475m  106.1784m  469.1886m -223.1746m  798.5416m 
 -489.47475m  106.1897m  469.1489m -223.0729m  798.4115m 
 -489.37475m  106.2010m  469.1092m -222.9712m  798.2814m 
 -489.27475m  106.2124m  469.0694m -222.8695m  798.1514m 
 -489.17475m  106.2237m  469.0297m -222.7679m  798.0213m 
 -489.07475m  106.2351m  468.9899m -222.6662m  797.8912m 
 -488.97475m  106.2464m  468.9501m -222.5646m  797.7612m 
 -488.87475m  106.2578m  468.9103m -222.4630m  797.6311m 
 -488.77475m  106.2692m  468.8705m -222.3614m  797.5011m 
 -488.67475m  106.2806m  468.8306m -222.2599m  797.3710m 
 -488.57475m  106.2920m  468.7907m -222.1583m  797.2410m 
 -488.47475m  106.3034m  468.7508m -222.0568m  797.1110m 
 -488.37475m  106.3148m  468.7109m -221.9553m  796.9810m 
 -488.27475m  106.3262m  468.6710m -221.8538m  796.8510m 
 -488.17475m  106.3376m  468.6311m -221.7523m  796.7210m 
 -488.07475m  106.3490m  468.5911m -221.6508m  796.5910m 
 -487.97475m  106.3605m  468.5511m -221.5494m  796.4610m 
 -487.87475m  106.3719m  468.5111m -221.4480m  796.3310m 
 -487.77475m  106.3834m  468.4711m -221.3466m  796.2011m 
 -487.67475m  106.3949m  468.4311m -221.2452m  796.0711m 
 -487.57475m  106.4063m  468.3910m -221.1438m  795.9411m 
 -487.47475m  106.4178m  468.3509m -221.0425m  795.8112m 
 -487.37475m  106.4293m  468.3108m -220.9412m  795.6813m 
 -487.27475m  106.4408m  468.2707m -220.8398m  795.5514m 
 -487.17475m  106.4523m  468.2306m -220.7386m  795.4214m 
 -487.07475m  106.4638m  468.1904m -220.6373m  795.2915m 
 -486.97475m  106.4753m  468.1503m -220.5360m  795.1616m 
 -486.87475m  106.4869m  468.1101m -220.4348m  795.0318m 
 -486.77475m  106.4984m  468.0699m -220.3336m  794.9019m 
 -486.67475m  106.5100m  468.0296m -220.2324m  794.7720m 
 -486.57475m  106.5215m  467.9894m -220.1312m  794.6421m 
 -486.47475m  106.5331m  467.9491m -220.0300m  794.5123m 
 -486.37475m  106.5447m  467.9089m -219.9289m  794.3824m 
 -486.27475m  106.5562m  467.8686m -219.8278m  794.2526m 
 -486.17475m  106.5678m  467.8282m -219.7267m  794.1228m 
 -486.07475m  106.5794m  467.7879m -219.6256m  793.9929m 
 -485.97475m  106.5910m  467.7475m -219.5245m  793.8631m 
 -485.87475m  106.6027m  467.7072m -219.4235m  793.7333m 
 -485.77475m  106.6143m  467.6668m -219.3225m  793.6035m 
 -485.67475m  106.6259m  467.6264m -219.2215m  793.4737m 
 -485.57475m  106.6376m  467.5859m -219.1205m  793.3439m 
 -485.47475m  106.6492m  467.5455m -219.0195m  793.2142m 
 -485.37475m  106.6609m  467.5050m -218.9185m  793.0844m 
 -485.27475m  106.6725m  467.4645m -218.8176m  792.9547m 
 -485.17475m  106.6842m  467.4240m -218.7167m  792.8249m 
 -485.07475m  106.6959m  467.3835m -218.6158m  792.6952m 
 -484.97475m  106.7076m  467.3429m -218.5149m  792.5654m 
 -484.87475m  106.7193m  467.3024m -218.4141m  792.4357m 
 -484.77475m  106.7310m  467.2618m -218.3132m  792.3060m 
 -484.67475m  106.7427m  467.2212m -218.2124m  792.1763m 
 -484.57475m  106.7544m  467.1806m -218.1116m  792.0466m 
 -484.47475m  106.7662m  467.1399m -218.0108m  791.9169m 
 -484.37475m  106.7779m  467.0993m -217.9100m  791.7872m 
 -484.27475m  106.7896m  467.0586m -217.8093m  791.6576m 
 -484.17475m  106.8014m  467.0179m -217.7086m  791.5279m 
 -484.07475m  106.8132m  466.9772m -217.6079m  791.3982m 
 -483.97475m  106.8249m  466.9365m -217.5072m  791.2686m 
 -483.87475m  106.8367m  466.8957m -217.4065m  791.1390m 
 -483.77475m  106.8485m  466.8549m -217.3059m  791.0093m 
 -483.67475m  106.8603m  466.8142m -217.2052m  790.8797m 
 -483.57475m  106.8721m  466.7733m -217.1046m  790.7501m 
 -483.47475m  106.8839m  466.7325m -217.0040m  790.6205m 
 -483.37475m  106.8958m  466.6917m -216.9034m  790.4909m 
 -483.27475m  106.9076m  466.6508m -216.8029m  790.3613m 
 -483.17475m  106.9195m  466.6099m -216.7024m  790.2317m 
 -483.07475m  106.9313m  466.5690m -216.6018m  790.1022m 
 -482.97475m  106.9432m  466.5281m -216.5013m  789.9726m 
 -482.87475m  106.9550m  466.4872m -216.4009m  789.8430m 
 -482.77475m  106.9669m  466.4462m -216.3004m  789.7135m 
 -482.67475m  106.9788m  466.4052m -216.2000m  789.5840m 
 -482.57475m  106.9907m  466.3642m -216.0995m  789.4544m 
 -482.47475m  107.0026m  466.3232m -215.9991m  789.3249m 
 -482.37475m  107.0145m  466.2822m -215.8987m  789.1954m 
 -482.27475m  107.0264m  466.2411m -215.7984m  789.0659m 
 -482.17475m  107.0384m  466.2000m -215.6980m  788.9364m 
 -482.07475m  107.0503m  466.1589m -215.5977m  788.8069m 
 -481.97475m  107.0622m  466.1178m -215.4974m  788.6775m 
 -481.87475m  107.0742m  466.0767m -215.3971m  788.5480m 
 -481.77475m  107.0862m  466.0356m -215.2968m  788.4185m 
 -481.67475m  107.0981m  465.9944m -215.1966m  788.2891m 
 -481.57475m  107.1101m  465.9532m -215.0963m  788.1597m 
 -481.47475m  107.1221m  465.9120m -214.9961m  788.0302m 
 -481.37475m  107.1341m  465.8708m -214.8959m  787.9008m 
 -481.27475m  107.1461m  465.8295m -214.7958m  787.7714m 
 -481.17475m  107.1581m  465.7882m -214.6956m  787.6420m 
 -481.07475m  107.1702m  465.7470m -214.5955m  787.5126m 
 -480.97475m  107.1822m  465.7057m -214.4954m  787.3832m 
 -480.87475m  107.1942m  465.6643m -214.3953m  787.2538m 
 -480.77475m  107.2063m  465.6230m -214.2952m  787.1244m 
 -480.67475m  107.2183m  465.5816m -214.1951m  786.9951m 
 -480.57475m  107.2304m  465.5403m -214.0951m  786.8657m 
 -480.47475m  107.2425m  465.4989m -213.9950m  786.7364m 
 -480.37475m  107.2546m  465.4574m -213.8950m  786.6071m 
 -480.27475m  107.2667m  465.4160m -213.7951m  786.4777m 
 -480.17475m  107.2788m  465.3745m -213.6951m  786.3484m 
 -480.07475m  107.2909m  465.3331m -213.5952m  786.2191m 
 -479.97475m  107.3030m  465.2916m -213.4952m  786.0898m 
 -479.87475m  107.3151m  465.2501m -213.3953m  785.9605m 
 -479.77475m  107.3273m  465.2085m -213.2954m  785.8312m 
 -479.67475m  107.3394m  465.1670m -213.1956m  785.7019m 
 -479.57475m  107.3516m  465.1254m -213.0957m  785.5727m 
 -479.47475m  107.3637m  465.0838m -212.9959m  785.4434m 
 -479.37475m  107.3759m  465.0422m -212.8961m  785.3142m 
 -479.27475m  107.3881m  465.0006m -212.7963m  785.1849m 
 -479.17475m  107.4003m  464.9589m -212.6965m  785.0557m 
 -479.07475m  107.4125m  464.9172m -212.5968m  784.9265m 
 -478.97475m  107.4247m  464.8756m -212.4970m  784.7973m 
 -478.87475m  107.4369m  464.8339m -212.3973m  784.6681m 
 -478.77475m  107.4491m  464.7921m -212.2976m  784.5389m 
 -478.67475m  107.4614m  464.7504m -212.1979m  784.4097m 
 -478.57475m  107.4736m  464.7086m -212.0983m  784.2805m 
 -478.47475m  107.4859m  464.6668m -211.9986m  784.1514m 
 -478.37475m  107.4981m  464.6250m -211.8990m  784.0222m 
 -478.27475m  107.5104m  464.5832m -211.7994m  783.8930m 
 -478.17475m  107.5227m  464.5414m -211.6998m  783.7639m 
 -478.07475m  107.5350m  464.4995m -211.6003m  783.6348m 
 -477.97475m  107.5473m  464.4576m -211.5007m  783.5056m 
 -477.87475m  107.5596m  464.4157m -211.4012m  783.3765m 
 -477.77475m  107.5719m  464.3738m -211.3017m  783.2474m 
 -477.67475m  107.5842m  464.3319m -211.2022m  783.1183m 
 -477.57475m  107.5966m  464.2899m -211.1028m  782.9892m 
 -477.47475m  107.6089m  464.2479m -211.0033m  782.8602m 
 -477.37475m  107.6213m  464.2059m -210.9039m  782.7311m 
 -477.27475m  107.6336m  464.1639m -210.8045m  782.6020m 
 -477.17475m  107.6460m  464.1219m -210.7051m  782.4730m 
 -477.07475m  107.6584m  464.0798m -210.6058m  782.3439m 
 -476.97475m  107.6708m  464.0377m -210.5064m  782.2149m 
 -476.87475m  107.6832m  463.9956m -210.4071m  782.0859m 
 -476.77475m  107.6956m  463.9535m -210.3078m  781.9569m 
 -476.67475m  107.7080m  463.9114m -210.2085m  781.8279m 
 -476.57475m  107.7204m  463.8692m -210.1092m  781.6989m 
 -476.47475m  107.7328m  463.8271m -210.0100m  781.5699m 
 -476.37475m  107.7453m  463.7849m -209.9107m  781.4409m 
 -476.27475m  107.7577m  463.7427m -209.8115m  781.3119m 
 -476.17475m  107.7702m  463.7004m -209.7123m  781.1830m 
 -476.07475m  107.7827m  463.6582m -209.6132m  781.0540m 
 -475.97475m  107.7951m  463.6159m -209.5140m  780.9251m 
 -475.87475m  107.8076m  463.5736m -209.4149m  780.7962m 
 -475.77475m  107.8201m  463.5313m -209.3158m  780.6672m 
 -475.67475m  107.8326m  463.4890m -209.2167m  780.5383m 
 -475.57475m  107.8452m  463.4466m -209.1176m  780.4094m 
 -475.47475m  107.8577m  463.4043m -209.0186m  780.2805m 
 -475.37475m  107.8702m  463.3619m -208.9195m  780.1516m 
 -475.27475m  107.8828m  463.3195m -208.8205m  780.0227m 
 -475.17475m  107.8953m  463.2771m -208.7215m  779.8939m 
 -475.07475m  107.9079m  463.2346m -208.6225m  779.7650m 
 -474.97475m  107.9204m  463.1921m -208.5236m  779.6362m 
 -474.87475m  107.9330m  463.1497m -208.4246m  779.5073m 
 -474.77475m  107.9456m  463.1072m -208.3257m  779.3785m 
 -474.67475m  107.9582m  463.0646m -208.2268m  779.2497m 
 -474.57475m  107.9708m  463.0221m -208.1280m  779.1209m 
 -474.47475m  107.9834m  462.9795m -208.0291m  778.9921m 
 -474.37475m  107.9961m  462.9369m -207.9303m  778.8633m 
 -474.27475m  108.0087m  462.8943m -207.8314m  778.7345m 
 -474.17475m  108.0213m  462.8517m -207.7326m  778.6057m 
 -474.07475m  108.0340m  462.8091m -207.6339m  778.4769m 
 -473.97475m  108.0467m  462.7664m -207.5351m  778.3482m 
 -473.87475m  108.0593m  462.7237m -207.4364m  778.2194m 
 -473.77475m  108.0720m  462.6810m -207.3376m  778.0907m 
 -473.67475m  108.0847m  462.6383m -207.2389m  777.9620m 
 -473.57475m  108.0974m  462.5956m -207.1403m  777.8332m 
 -473.47475m  108.1101m  462.5528m -207.0416m  777.7045m 
 -473.37475m  108.1228m  462.5100m -206.9430m  777.5758m 
 -473.27475m  108.1356m  462.4672m -206.8443m  777.4471m 
 -473.17475m  108.1483m  462.4244m -206.7457m  777.3184m 
 -473.07475m  108.1610m  462.3816m -206.6472m  777.1898m 
 -472.97475m  108.1738m  462.3387m -206.5486m  777.0611m 
 -472.87475m  108.1866m  462.2958m -206.4501m  776.9324m 
 -472.77475m  108.1993m  462.2529m -206.3515m  776.8038m 
 -472.67475m  108.2121m  462.2100m -206.2530m  776.6752m 
 -472.57475m  108.2249m  462.1671m -206.1545m  776.5465m 
 -472.47475m  108.2377m  462.1241m -206.0561m  776.4179m 
 -472.37475m  108.2505m  462.0811m -205.9576m  776.2893m 
 -472.27475m  108.2634m  462.0381m -205.8592m  776.1607m 
 -472.17475m  108.2762m  461.9951m -205.7608m  776.0321m 
 -472.07475m  108.2890m  461.9521m -205.6624m  775.9035m 
 -471.97475m  108.3019m  461.9090m -205.5641m  775.7750m 
 -471.87475m  108.3147m  461.8659m -205.4657m  775.6464m 
 -471.77475m  108.3276m  461.8229m -205.3674m  775.5179m 
 -471.67475m  108.3405m  461.7797m -205.2691m  775.3893m 
 -471.57475m  108.3534m  461.7366m -205.1708m  775.2608m 
 -471.47475m  108.3663m  461.6934m -205.0725m  775.1323m 
 -471.37475m  108.3792m  461.6503m -204.9743m  775.0037m 
 -471.27475m  108.3921m  461.6071m -204.8761m  774.8752m 
 -471.17475m  108.4050m  461.5639m -204.7779m  774.7467m 
 -471.07475m  108.4180m  461.5206m -204.6797m  774.6183m 
 -470.97475m  108.4309m  461.4774m -204.5815m  774.4898m 
 -470.87475m  108.4439m  461.4341m -204.4834m  774.3613m 
 -470.77475m  108.4568m  461.3908m -204.3852m  774.2329m 
 -470.67475m  108.4698m  461.3475m -204.2871m  774.1044m 
 -470.57475m  108.4828m  461.3041m -204.1890m  773.9760m 
 -470.47475m  108.4958m  461.2608m -204.0910m  773.8475m 
 -470.37475m  108.5088m  461.2174m -203.9929m  773.7191m 
 -470.27475m  108.5218m  461.1740m -203.8949m  773.5907m 
 -470.17475m  108.5348m  461.1306m -203.7969m  773.4623m 
 -470.07475m  108.5478m  461.0872m -203.6989m  773.3339m 
 -469.97475m  108.5609m  461.0437m -203.6010m  773.2055m 
 -469.87475m  108.5739m  461.0002m -203.5030m  773.0772m 
 -469.77475m  108.5870m  460.9567m -203.4051m  772.9488m 
 -469.67475m  108.6001m  460.9132m -203.3072m  772.8205m 
 -469.57475m  108.6131m  460.8697m -203.2093m  772.6921m 
 -469.47475m  108.6262m  460.8261m -203.1114m  772.5638m 
 -469.37475m  108.6393m  460.7826m -203.0136m  772.4355m 
 -469.27475m  108.6524m  460.7390m -202.9157m  772.3072m 
 -469.17475m  108.6656m  460.6954m -202.8179m  772.1789m 
 -469.07475m  108.6787m  460.6517m -202.7202m  772.0506m 
 -468.97475m  108.6918m  460.6081m -202.6224m  771.9223m 
 -468.87475m  108.7050m  460.5644m -202.5246m  771.7940m 
 -468.77475m  108.7181m  460.5207m -202.4269m  771.6657m 
 -468.67475m  108.7313m  460.4770m -202.3292m  771.5375m 
 -468.57475m  108.7445m  460.4332m -202.2315m  771.4092m 
 -468.47475m  108.7577m  460.3895m -202.1339m  771.2810m 
 -468.37475m  108.7709m  460.3457m -202.0362m  771.1528m 
 -468.27475m  108.7841m  460.3019m -201.9386m  771.0246m 
 -468.17475m  108.7973m  460.2581m -201.8410m  770.8964m 
 -468.07475m  108.8105m  460.2143m -201.7434m  770.7682m 
 -467.97475m  108.8237m  460.1704m -201.6458m  770.6400m 
 -467.87475m  108.8370m  460.1265m -201.5483m  770.5118m 
 -467.77475m  108.8502m  460.0826m -201.4508m  770.3836m 
 -467.67475m  108.8635m  460.0387m -201.3533m  770.2555m 
 -467.57475m  108.8768m  459.9948m -201.2558m  770.1273m 
 -467.47475m  108.8901m  459.9508m -201.1583m  769.9992m 
 -467.37475m  108.9034m  459.9068m -201.0609m  769.8711m 
 -467.27475m  108.9167m  459.8628m -200.9634m  769.7429m 
 -467.17475m  108.9300m  459.8188m -200.8660m  769.6148m 
 -467.07475m  108.9433m  459.7748m -200.7686m  769.4867m 
 -466.97475m  108.9566m  459.7307m -200.6713m  769.3587m 
 -466.87475m  108.9700m  459.6867m -200.5739m  769.2306m 
 -466.77475m  108.9833m  459.6426m -200.4766m  769.1025m 
 -466.67475m  108.9967m  459.5984m -200.3793m  768.9745m 
 -466.57475m  109.0101m  459.5543m -200.2820m  768.8464m 
 -466.47475m  109.0235m  459.5101m -200.1848m  768.7184m 
 -466.37475m  109.0368m  459.4660m -200.0875m  768.5903m 
 -466.27475m  109.0502m  459.4218m -199.9903m  768.4623m 
 -466.17475m  109.0637m  459.3775m -199.8931m  768.3343m 
 -466.07475m  109.0771m  459.3333m -199.7959m  768.2063m 
 -465.97475m  109.0905m  459.2890m -199.6988m  768.0783m 
 -465.87475m  109.1040m  459.2448m -199.6016m  767.9503m 
 -465.77475m  109.1174m  459.2005m -199.5045m  767.8224m 
 -465.67475m  109.1309m  459.1561m -199.4074m  767.6944m 
 -465.57475m  109.1443m  459.1118m -199.3103m  767.5665m 
 -465.47475m  109.1578m  459.0674m -199.2133m  767.4385m 
 -465.37475m  109.1713m  459.0231m -199.1162m  767.3106m 
 -465.27475m  109.1848m  458.9787m -199.0192m  767.1827m 
 -465.17475m  109.1983m  458.9342m -198.9222m  767.0548m 
 -465.07475m  109.2119m  458.8898m -198.8252m  766.9269m 
 -464.97475m  109.2254m  458.8453m -198.7283m  766.7990m 
 -464.87475m  109.2389m  458.8008m -198.6313m  766.6711m 
 -464.77475m  109.2525m  458.7563m -198.5344m  766.5432m 
 -464.67475m  109.2661m  458.7118m -198.4375m  766.4154m 
 -464.57475m  109.2796m  458.6673m -198.3406m  766.2875m 
 -464.47475m  109.2932m  458.6227m -198.2438m  766.1597m 
 -464.37475m  109.3068m  458.5781m -198.1469m  766.0319m 
 -464.27475m  109.3204m  458.5335m -198.0501m  765.9041m 
 -464.17475m  109.3340m  458.4889m -197.9533m  765.7762m 
 -464.07475m  109.3476m  458.4442m -197.8566m  765.6484m 
 -463.97475m  109.3613m  458.3996m -197.7598m  765.5207m 
 -463.87475m  109.3749m  458.3549m -197.6631m  765.3929m 
 -463.77475m  109.3886m  458.3102m -197.5664m  765.2651m 
 -463.67475m  109.4022m  458.2655m -197.4697m  765.1374m 
 -463.57475m  109.4159m  458.2207m -197.3730m  765.0096m 
