 ****** HSPICE -- Q-2020.03-SP2-2 linux64 (Nov  1 2020) ******                  
  Copyright (c) 1986 - 2025 by Synopsys, Inc. All Rights Reserved.              
  This software and the associated documentation are proprietary
  to Synopsys, Inc. This software may only be used in accordance
  with the terms and conditions of a written license agreement with
  Synopsys, Inc. All other use, reproduction, or distribution of
  this software is strictly prohibited.
  Input File: SRAM_SNM_TT.sp                                                    
  Command line options: /RAID2/cad/synopsys/hspice/2020.03-sp2-2/hspice/linux64/hspice -i SRAM_SNM_TT.sp -o SRAM_SNM_TT.lis
  Start time: Wed Mar 19 20:32:40 2025
 lic:  
 lic: FLEXlm: SDK_12.6 
 lic: USER:   es25MCS042           HOSTNAME: ee28 
 lic: HOSTID: "d85ed3efc19a"       PID:      40887 
 lic: Using FLEXlm license file: 
 lic: 26585@lshc 
 lic: Checkout 1 hspice 
 lic: License/Maintenance for hspice will expire on 14-may-2025/2024.09 
 lic: 227(in_use)/1100(total) FLOATING license(s) on SERVER 26585@lshc 
 lic:   
  
      
             
 Warning:'Floating bulk' occurs 1 times
 Summary of floating bulk:
 -----------------------
 |Node      |Device    |
 |----------+----------|
 |x         |mpr       |
 -----------------------
              
 *****************************************************************
 ******  option summary
 ******
 runlvl  = 3         bypass  = 2.0000    
 ******
 .title noise margin in hold operation

 ****** dc transfer curves tnom=  25.000 temp=  25.000 ******
x

 volt         voltage    voltage    voltage    voltage   
             0          q          gr         vdd        
 -707.10678m    0.        22.1047n    1.0000   700.0000m 
 -707.00678m    0.        22.0921n  999.8586m  700.0000m 
 -706.90678m    0.        22.0794n  999.7172m  700.0000m 
 -706.80678m    0.        22.0668n  999.5758m  700.0000m 
 -706.70678m    0.        22.0542n  999.4343m  700.0000m 
 -706.60678m    0.        22.0416n  999.2929m  700.0000m 
 -706.50678m    0.        22.0290n  999.1515m  700.0000m 
 -706.40678m    0.        22.0164n  999.0101m  700.0000m 
 -706.30678m    0.        22.0038n  998.8687m  700.0000m 
 -706.20678m    0.        21.9912n  998.7272m  700.0000m 
 -706.10678m    0.        21.9786n  998.5858m  700.0000m 
 -706.00678m    0.        21.9660n  998.4444m  700.0000m 
 -705.90678m    0.        21.9534n  998.3030m  700.0000m 
 -705.80678m    0.        21.9408n  998.1615m  700.0000m 
 -705.70678m    0.        21.9282n  998.0201m  700.0000m 
 -705.60678m    0.        21.9156n  997.8787m  700.0000m 
 -705.50678m    0.        21.9030n  997.7373m  700.0000m 
 -705.40678m    0.        21.8905n  997.5959m  700.0000m 
 -705.30678m    0.        21.8779n  997.4544m  700.0000m 
 -705.20678m    0.        21.8653n  997.3130m  700.0000m 
 -705.10678m    0.        21.8527n  997.1716m  700.0000m 
 -705.00678m    0.        21.8402n  997.0302m  700.0000m 
 -704.90678m    0.        21.8276n  996.8888m  700.0000m 
 -704.80678m    0.        21.8150n  996.7473m  700.0000m 
 -704.70678m    0.        21.8025n  996.6059m  700.0000m 
 -704.60678m    0.        21.7899n  996.4645m  700.0000m 
 -704.50678m    0.        21.7774n  996.3231m  700.0000m 
 -704.40678m    0.        21.7648n  996.1816m  700.0000m 
 -704.30678m    0.        21.7523n  996.0402m  700.0000m 
 -704.20678m    0.        21.7397n  995.8988m  700.0000m 
 -704.10678m    0.        21.7272n  995.7574m  700.0000m 
 -704.00678m    0.        21.7146n  995.6160m  700.0000m 
 -703.90678m    0.        21.7021n  995.4745m  700.0000m 
 -703.80678m    0.        21.6896n  995.3331m  700.0000m 
 -703.70678m    0.        21.6770n  995.1917m  700.0000m 
 -703.60678m    0.        21.6645n  995.0503m  700.0000m 
 -703.50678m    0.        21.6520n  994.9089m  700.0000m 
 -703.40678m    0.        21.6395n  994.7674m  700.0000m 
 -703.30678m    0.        21.6269n  994.6260m  700.0000m 
 -703.20678m    0.        21.6144n  994.4846m  700.0000m 
 -703.10678m    0.        21.6019n  994.3432m  700.0000m 
 -703.00678m    0.        21.5894n  994.2017m  700.0000m 
 -702.90678m    0.        21.5769n  994.0603m  700.0000m 
 -702.80678m    0.        21.5644n  993.9189m  700.0000m 
 -702.70678m    0.        21.5519n  993.7775m  700.0000m 
 -702.60678m    0.        21.5394n  993.6361m  700.0000m 
 -702.50678m    0.        21.5269n  993.4946m  700.0000m 
 -702.40678m    0.        21.5144n  993.3532m  700.0000m 
 -702.30678m    0.        21.5019n  993.2118m  700.0000m 
 -702.20678m    0.        21.4894n  993.0704m  700.0000m 
 -702.10678m    0.        21.4769n  992.9290m  700.0000m 
 -702.00678m    0.        21.4644n  992.7875m  700.0000m 
 -701.90678m    0.        21.4519n  992.6461m  700.0000m 
 -701.80678m    0.        21.4394n  992.5047m  700.0000m 
 -701.70678m    0.        21.4270n  992.3633m  700.0000m 
 -701.60678m    0.        21.4145n  992.2218m  700.0000m 
 -701.50678m    0.        21.4020n  992.0804m  700.0000m 
 -701.40678m    0.        21.3895n  991.9390m  700.0000m 
 -701.30678m    0.        21.3771n  991.7976m  700.0000m 
 -701.20678m    0.        21.3646n  991.6562m  700.0000m 
 -701.10678m    0.        21.3521n  991.5147m  700.0000m 
 -701.00678m    0.        21.3397n  991.3733m  700.0000m 
 -700.90678m    0.        21.3272n  991.2319m  700.0000m 
 -700.80678m    0.        21.3148n  991.0905m  700.0000m 
 -700.70678m    0.        21.3023n  990.9491m  700.0000m 
 -700.60678m    0.        21.2899n  990.8076m  700.0000m 
 -700.50678m    0.        21.2774n  990.6662m  700.0000m 
 -700.40678m    0.        21.2650n  990.5248m  700.0000m 
 -700.30678m    0.        21.2525n  990.3834m  700.0000m 
 -700.20678m    0.        21.2401n  990.2419m  700.0000m 
 -700.10678m    0.        21.2277n  990.1005m  700.0000m 
 -700.00678m    0.        21.2152n  989.9591m  700.0000m 
 -699.90678m    0.        21.2028n  989.8177m  700.0000m 
 -699.80678m    0.        21.1904n  989.6763m  700.0000m 
 -699.70678m    0.        21.1779n  989.5348m  700.0000m 
 -699.60678m    0.        21.1655n  989.3934m  700.0000m 
 -699.50678m    0.        21.1531n  989.2520m  700.0000m 
 -699.40678m    0.        21.1407n  989.1106m  700.0000m 
 -699.30678m    0.        21.1283n  988.9692m  700.0000m 
 -699.20678m    0.        21.1159n  988.8277m  700.0000m 
 -699.10678m    0.        21.1034n  988.6863m  700.0000m 
 -699.00678m    0.        21.0910n  988.5449m  700.0000m 
 -698.90678m    0.        21.0786n  988.4035m  700.0000m 
 -698.80678m    0.        21.0662n  988.2620m  700.0000m 
 -698.70678m    0.        21.0538n  988.1206m  700.0000m 
 -698.60678m    0.        21.0414n  987.9792m  700.0000m 
 -698.50678m    0.        21.0290n  987.8378m  700.0000m 
 -698.40678m    0.        21.0166n  987.6964m  700.0000m 
 -698.30678m    0.        21.0043n  987.5549m  700.0000m 
 -698.20678m    0.        20.9919n  987.4135m  700.0000m 
 -698.10678m    0.        20.9795n  987.2721m  700.0000m 
 -698.00678m    0.        20.9671n  987.1307m  700.0000m 
 -697.90678m    0.        20.9547n  986.9893m  700.0000m 
 -697.80678m    0.        20.9423n  986.8478m  700.0000m 
 -697.70678m    0.        20.9300n  986.7064m  700.0000m 
 -697.60678m    0.        20.9176n  986.5650m  700.0000m 
 -697.50678m    0.        20.9052n  986.4236m  700.0000m 
 -697.40678m    0.        20.8928n  986.2821m  700.0000m 
 -697.30678m    0.        20.8805n  986.1407m  700.0000m 
 -697.20678m    0.        20.8681n  985.9993m  700.0000m 
 -697.10678m    0.        20.8558n  985.8579m  700.0000m 
 -697.00678m    0.        20.8434n  985.7165m  700.0000m 
 -696.90678m    0.        20.8310n  985.5750m  700.0000m 
 -696.80678m    0.        20.8187n  985.4336m  700.0000m 
 -696.70678m    0.        20.8063n  985.2922m  700.0000m 
 -696.60678m    0.        20.7940n  985.1508m  700.0000m 
 -696.50678m    0.        20.7816n  985.0094m  700.0000m 
 -696.40678m    0.        20.7693n  984.8679m  700.0000m 
 -696.30678m    0.        20.7570n  984.7265m  700.0000m 
 -696.20678m    0.        20.7446n  984.5851m  700.0000m 
 -696.10678m    0.        20.7323n  984.4437m  700.0000m 
 -696.00678m    0.        20.7199n  984.3023m  700.0000m 
 -695.90678m    0.        20.7076n  984.1608m  700.0000m 
 -695.80678m    0.        20.6953n  984.0194m  700.0000m 
 -695.70678m    0.        20.6830n  983.8780m  700.0000m 
 -695.60678m    0.        20.6706n  983.7366m  700.0000m 
 -695.50678m    0.        20.6583n  983.5951m  700.0000m 
 -695.40678m    0.        20.6460n  983.4537m  700.0000m 
 -695.30678m    0.        20.6337n  983.3123m  700.0000m 
 -695.20678m    0.        20.6214n  983.1709m  700.0000m 
 -695.10678m    0.        20.6090n  983.0295m  700.0000m 
 -695.00678m    0.        20.5967n  982.8880m  700.0000m 
 -694.90678m    0.        20.5844n  982.7466m  700.0000m 
 -694.80678m    0.        20.5721n  982.6052m  700.0000m 
 -694.70678m    0.        20.5598n  982.4638m  700.0000m 
 -694.60678m    0.        20.5475n  982.3224m  700.0000m 
 -694.50678m    0.        20.5352n  982.1809m  700.0000m 
 -694.40678m    0.        20.5229n  982.0395m  700.0000m 
 -694.30678m    0.        20.5106n  981.8981m  700.0000m 
 -694.20678m    0.        20.4983n  981.7567m  700.0000m 
 -694.10678m    0.        20.4860n  981.6152m  700.0000m 
 -694.00678m    0.        20.4737n  981.4738m  700.0000m 
 -693.90678m    0.        20.4615n  981.3324m  700.0000m 
 -693.80678m    0.        20.4492n  981.1910m  700.0000m 
 -693.70678m    0.        20.4369n  981.0496m  700.0000m 
 -693.60678m    0.        20.4246n  980.9081m  700.0000m 
 -693.50678m    0.        20.4123n  980.7667m  700.0000m 
 -693.40678m    0.        20.4001n  980.6253m  700.0000m 
 -693.30678m    0.        20.3878n  980.4839m  700.0000m 
 -693.20678m    0.        20.3755n  980.3425m  700.0000m 
 -693.10678m    0.        20.3633n  980.2010m  700.0000m 
 -693.00678m    0.        20.3510n  980.0596m  700.0000m 
 -692.90678m    0.        20.3387n  979.9182m  700.0000m 
 -692.80678m    0.        20.3265n  979.7768m  700.0000m 
 -692.70678m    0.        20.3142n  979.6353m  700.0000m 
 -692.60678m    0.        20.3020n  979.4939m  700.0000m 
 -692.50678m    0.        20.2897n  979.3525m  700.0000m 
 -692.40678m    0.        20.2775n  979.2111m  700.0000m 
 -692.30678m    0.        20.2652n  979.0697m  700.0000m 
 -692.20678m    0.        20.2530n  978.9282m  700.0000m 
 -692.10678m    0.        20.2407n  978.7868m  700.0000m 
 -692.00678m    0.        20.2285n  978.6454m  700.0000m 
 -691.90678m    0.        20.2162n  978.5040m  700.0000m 
 -691.80678m    0.        20.2040n  978.3626m  700.0000m 
 -691.70678m    0.        20.1918n  978.2211m  700.0000m 
 -691.60678m    0.        20.1795n  978.0797m  700.0000m 
 -691.50678m    0.        20.1673n  977.9383m  700.0000m 
 -691.40678m    0.        20.1551n  977.7969m  700.0000m 
 -691.30678m    0.        20.1428n  977.6554m  700.0000m 
 -691.20678m    0.        20.1306n  977.5140m  700.0000m 
 -691.10678m    0.        20.1184n  977.3726m  700.0000m 
 -691.00678m    0.        20.1062n  977.2312m  700.0000m 
 -690.90678m    0.        20.0939n  977.0898m  700.0000m 
 -690.80678m    0.        20.0817n  976.9483m  700.0000m 
 -690.70678m    0.        20.0695n  976.8069m  700.0000m 
 -690.60678m    0.        20.0573n  976.6655m  700.0000m 
 -690.50678m    0.        20.0451n  976.5241m  700.0000m 
 -690.40678m    0.        20.0329n  976.3827m  700.0000m 
 -690.30678m    0.        20.0207n  976.2412m  700.0000m 
 -690.20678m    0.        20.0085n  976.0998m  700.0000m 
 -690.10678m    0.        19.9963n  975.9584m  700.0000m 
 -690.00678m    0.        19.9841n  975.8170m  700.0000m 
 -689.90678m    0.        19.9719n  975.6755m  700.0000m 
 -689.80678m    0.        19.9597n  975.5341m  700.0000m 
 -689.70678m    0.        19.9475n  975.3927m  700.0000m 
 -689.60678m    0.        19.9353n  975.2513m  700.0000m 
 -689.50678m    0.        19.9231n  975.1099m  700.0000m 
 -689.40678m    0.        19.9109n  974.9684m  700.0000m 
 -689.30678m    0.        19.8987n  974.8270m  700.0000m 
 -689.20678m    0.        19.8866n  974.6856m  700.0000m 
 -689.10678m    0.        19.8744n  974.5442m  700.0000m 
 -689.00678m    0.        19.8622n  974.4028m  700.0000m 
 -688.90678m    0.        19.8500n  974.2613m  700.0000m 
 -688.80678m    0.        19.8379n  974.1199m  700.0000m 
 -688.70678m    0.        19.8257n  973.9785m  700.0000m 
 -688.60678m    0.        19.8135n  973.8371m  700.0000m 
 -688.50678m    0.        19.8013n  973.6956m  700.0000m 
 -688.40678m    0.        19.7892n  973.5542m  700.0000m 
 -688.30678m    0.        19.7770n  973.4128m  700.0000m 
 -688.20678m    0.        19.7649n  973.2714m  700.0000m 
 -688.10678m    0.        19.7527n  973.1300m  700.0000m 
 -688.00678m    0.        19.7405n  972.9885m  700.0000m 
 -687.90678m    0.        19.7284n  972.8471m  700.0000m 
 -687.80678m    0.        19.7162n  972.7057m  700.0000m 
 -687.70678m    0.        19.7041n  972.5643m  700.0000m 
 -687.60678m    0.        19.6919n  972.4229m  700.0000m 
 -687.50678m    0.        19.6798n  972.2814m  700.0000m 
 -687.40678m    0.        19.6676n  972.1400m  700.0000m 
 -687.30678m    0.        19.6555n  971.9986m  700.0000m 
 -687.20678m    0.        19.6433n  971.8572m  700.0000m 
 -687.10678m    0.        19.6312n  971.7157m  700.0000m 
 -687.00678m    0.        19.6191n  971.5743m  700.0000m 
 -686.90678m    0.        19.6069n  971.4329m  700.0000m 
 -686.80678m    0.        19.5948n  971.2915m  700.0000m 
 -686.70678m    0.        19.5827n  971.1501m  700.0000m 
 -686.60678m    0.        19.5705n  971.0086m  700.0000m 
 -686.50678m    0.        19.5584n  970.8672m  700.0000m 
 -686.40678m    0.        19.5463n  970.7258m  700.0000m 
 -686.30678m    0.        19.5342n  970.5844m  700.0000m 
 -686.20678m    0.        19.5220n  970.4430m  700.0000m 
 -686.10678m    0.        19.5099n  970.3015m  700.0000m 
 -686.00678m    0.        19.4978n  970.1601m  700.0000m 
 -685.90678m    0.        19.4857n  970.0187m  700.0000m 
 -685.80678m    0.        19.4736n  969.8773m  700.0000m 
 -685.70678m    0.        19.4615n  969.7358m  700.0000m 
 -685.60678m    0.        19.4494n  969.5944m  700.0000m 
 -685.50678m    0.        19.4373n  969.4530m  700.0000m 
 -685.40678m    0.        19.4251n  969.3116m  700.0000m 
 -685.30678m    0.        19.4130n  969.1702m  700.0000m 
 -685.20678m    0.        19.4009n  969.0287m  700.0000m 
 -685.10678m    0.        19.3888n  968.8873m  700.0000m 
 -685.00678m    0.        19.3767n  968.7459m  700.0000m 
 -684.90678m    0.        19.3646n  968.6045m  700.0000m 
 -684.80678m    0.        19.3526n  968.4631m  700.0000m 
 -684.70678m    0.        19.3405n  968.3216m  700.0000m 
 -684.60678m    0.        19.3284n  968.1802m  700.0000m 
 -684.50678m    0.        19.3163n  968.0388m  700.0000m 
 -684.40678m    0.        19.3042n  967.8974m  700.0000m 
 -684.30678m    0.        19.2921n  967.7560m  700.0000m 
 -684.20678m    0.        19.2800n  967.6145m  700.0000m 
 -684.10678m    0.        19.2679n  967.4731m  700.0000m 
 -684.00678m    0.        19.2559n  967.3317m  700.0000m 
 -683.90678m    0.        19.2438n  967.1903m  700.0000m 
 -683.80678m    0.        19.2317n  967.0488m  700.0000m 
 -683.70678m    0.        19.2196n  966.9074m  700.0000m 
 -683.60678m    0.        19.2076n  966.7660m  700.0000m 
 -683.50678m    0.        19.1955n  966.6246m  700.0000m 
 -683.40678m    0.        19.1834n  966.4832m  700.0000m 
 -683.30678m    0.        19.1714n  966.3417m  700.0000m 
 -683.20678m    0.        19.1593n  966.2003m  700.0000m 
 -683.10678m    0.        19.1472n  966.0589m  700.0000m 
 -683.00678m    0.        19.1352n  965.9175m  700.0000m 
 -682.90678m    0.        19.1231n  965.7761m  700.0000m 
 -682.80678m    0.        19.1111n  965.6346m  700.0000m 
 -682.70678m    0.        19.0990n  965.4932m  700.0000m 
 -682.60678m    0.        19.0870n  965.3518m  700.0000m 
 -682.50678m    0.        19.0749n  965.2104m  700.0000m 
 -682.40678m    0.        19.0629n  965.0689m  700.0000m 
 -682.30678m    0.        19.0508n  964.9275m  700.0000m 
 -682.20678m    0.        19.0388n  964.7861m  700.0000m 
 -682.10678m    0.        19.0267n  964.6447m  700.0000m 
 -682.00678m    0.        19.0147n  964.5033m  700.0000m 
 -681.90678m    0.        19.0027n  964.3618m  700.0000m 
 -681.80678m    0.        18.9906n  964.2204m  700.0000m 
 -681.70678m    0.        18.9786n  964.0790m  700.0000m 
 -681.60678m    0.        18.9665n  963.9376m  700.0000m 
 -681.50678m    0.        18.9545n  963.7962m  700.0000m 
 -681.40678m    0.        18.9425n  963.6547m  700.0000m 
 -681.30678m    0.        18.9305n  963.5133m  700.0000m 
 -681.20678m    0.        18.9184n  963.3719m  700.0000m 
 -681.10678m    0.        18.9064n  963.2305m  700.0000m 
 -681.00678m    0.        18.8944n  963.0890m  700.0000m 
 -680.90678m    0.        18.8824n  962.9476m  700.0000m 
 -680.80678m    0.        18.8703n  962.8062m  700.0000m 
 -680.70678m    0.        18.8583n  962.6648m  700.0000m 
 -680.60678m    0.        18.8463n  962.5234m  700.0000m 
 -680.50678m    0.        18.8343n  962.3819m  700.0000m 
 -680.40678m    0.        18.8223n  962.2405m  700.0000m 
 -680.30678m    0.        18.8103n  962.0991m  700.0000m 
 -680.20678m    0.        18.7983n  961.9577m  700.0000m 
 -680.10678m    0.        18.7863n  961.8163m  700.0000m 
 -680.00678m    0.        18.7742n  961.6748m  700.0000m 
 -679.90678m    0.        18.7622n  961.5334m  700.0000m 
 -679.80678m    0.        18.7502n  961.3920m  700.0000m 
 -679.70678m    0.        18.7382n  961.2506m  700.0000m 
 -679.60678m    0.        18.7262n  961.1091m  700.0000m 
 -679.50678m    0.        18.7142n  960.9677m  700.0000m 
 -679.40678m    0.        18.7022n  960.8263m  700.0000m 
 -679.30678m    0.        18.6903n  960.6849m  700.0000m 
 -679.20678m    0.        18.6783n  960.5435m  700.0000m 
 -679.10678m    0.        18.6663n  960.4020m  700.0000m 
 -679.00678m    0.        18.6543n  960.2606m  700.0000m 
 -678.90678m    0.        18.6423n  960.1192m  700.0000m 
 -678.80678m    0.        18.6303n  959.9778m  700.0000m 
 -678.70678m    0.        18.6183n  959.8364m  700.0000m 
 -678.60678m    0.        18.6064n  959.6949m  700.0000m 
 -678.50678m    0.        18.5944n  959.5535m  700.0000m 
 -678.40678m    0.        18.5824n  959.4121m  700.0000m 
 -678.30678m    0.        18.5704n  959.2707m  700.0000m 
 -678.20678m    0.        18.5584n  959.1292m  700.0000m 
 -678.10678m    0.        18.5465n  958.9878m  700.0000m 
 -678.00678m    0.        18.5345n  958.8464m  700.0000m 
 -677.90678m    0.        18.5225n  958.7050m  700.0000m 
 -677.80678m    0.        18.5106n  958.5636m  700.0000m 
 -677.70678m    0.        18.4986n  958.4221m  700.0000m 
 -677.60678m    0.        18.4866n  958.2807m  700.0000m 
 -677.50678m    0.        18.4747n  958.1393m  700.0000m 
 -677.40678m    0.        18.4627n  957.9979m  700.0000m 
 -677.30678m    0.        18.4508n  957.8565m  700.0000m 
 -677.20678m    0.        18.4388n  957.7150m  700.0000m 
 -677.10678m    0.        18.4268n  957.5736m  700.0000m 
 -677.00678m    0.        18.4149n  957.4322m  700.0000m 
 -676.90678m    0.        18.4029n  957.2908m  700.0000m 
 -676.80678m    0.        18.3910n  957.1493m  700.0000m 
 -676.70678m    0.        18.3790n  957.0079m  700.0000m 
 -676.60678m    0.        18.3671n  956.8665m  700.0000m 
 -676.50678m    0.        18.3551n  956.7251m  700.0000m 
 -676.40678m    0.        18.3432n  956.5837m  700.0000m 
 -676.30678m    0.        18.3313n  956.4422m  700.0000m 
 -676.20678m    0.        18.3193n  956.3008m  700.0000m 
 -676.10678m    0.        18.3074n  956.1594m  700.0000m 
 -676.00678m    0.        18.2954n  956.0180m  700.0000m 
 -675.90678m    0.        18.2835n  955.8766m  700.0000m 
 -675.80678m    0.        18.2716n  955.7351m  700.0000m 
 -675.70678m    0.        18.2596n  955.5937m  700.0000m 
