 ****** HSPICE -- Q-2020.03-SP2-2 linux64 (Nov  1 2020) ******                  
  Copyright (c) 1986 - 2025 by Synopsys, Inc. All Rights Reserved.              
  This software and the associated documentation are proprietary
  to Synopsys, Inc. This software may only be used in accordance
  with the terms and conditions of a written license agreement with
  Synopsys, Inc. All other use, reproduction, or distribution of
  this software is strictly prohibited.
  Input File: SRAM_SNM_TT.sp                                                    
  Command line options: /RAID2/cad/synopsys/hspice/2020.03-sp2-2/hspice/linux64/hspice -i SRAM_SNM_TT.sp -o SRAM_SNM_TT.lis
  Start time: Thu Mar 20 19:36:50 2025
 lic:  
 lic: FLEXlm: SDK_12.6 
 lic: USER:   es25MCS042           HOSTNAME: ee28 
 lic: HOSTID: "d85ed3efc19a"       PID:      140298 
 lic: Using FLEXlm license file: 
 lic: 26585@lshc 
 lic: Checkout 1 hspice 
 lic: License/Maintenance for hspice will expire on 14-may-2025/2024.09 
 lic: 243(in_use)/1100(total) FLOATING license(s) on SERVER 26585@lshc 
 lic:   
  
      
             
 Warning:'Floating bulk' occurs 1 times
 Summary of floating bulk:
 -----------------------
 |Node      |Device    |
 |----------+----------|
 |x         |mpr       |
 -----------------------
              
 *****************************************************************
 ******  option summary
 ******
 runlvl  = 3         bypass  = 2.0000    
 ******
 .title noise margin in hold operation

 ****** dc transfer curves tnom=  25.000 temp=  25.000 ******
x

 volt         voltage    voltage    voltage    voltage   
             q          qb         v1         v2         
 -494.97475m   31.6225n  700.0000m  494.9747m  494.9748m 
 -494.87475m   31.7657n  700.0000m  495.0747m  494.8748m 
 -494.77475m   31.9096n  700.0000m  495.1747m  494.7748m 
 -494.67475m   32.0544n  700.0000m  495.2747m  494.6748m 
 -494.57475m   32.2000n  700.0000m  495.3747m  494.5748m 
 -494.47475m   32.3465n  700.0000m  495.4747m  494.4748m 
 -494.37475m   32.4938n  700.0000m  495.5747m  494.3748m 
 -494.27475m   32.6420n  700.0000m  495.6747m  494.2748m 
 -494.17475m   32.7910n  700.0000m  495.7747m  494.1748m 
 -494.07475m   32.9409n  700.0000m  495.8747m  494.0748m 
 -493.97475m   33.0916n  700.0000m  495.9747m  493.9748m 
 -493.87475m   33.2432n  700.0000m  496.0747m  493.8748m 
 -493.77475m   33.3957n  700.0000m  496.1747m  493.7748m 
 -493.67475m   33.5490n  700.0000m  496.2747m  493.6748m 
 -493.57475m   33.7033n  700.0000m  496.3747m  493.5748m 
 -493.47475m   33.8584n  700.0000m  496.4747m  493.4748m 
 -493.37475m   34.0144n  700.0000m  496.5747m  493.3748m 
 -493.27475m   34.1713n  700.0000m  496.6747m  493.2748m 
 -493.17475m   34.3291n  700.0000m  496.7747m  493.1748m 
 -493.07475m   34.4879n  700.0000m  496.8747m  493.0748m 
 -492.97475m   34.6475n  700.0000m  496.9747m  492.9748m 
 -492.87475m   34.8081n  700.0000m  497.0747m  492.8748m 
 -492.77475m   34.9695n  700.0000m  497.1747m  492.7748m 
 -492.67475m   35.1320n  700.0000m  497.2747m  492.6748m 
 -492.57475m   35.2953n  700.0000m  497.3747m  492.5748m 
 -492.47475m   35.4596n  700.0000m  497.4747m  492.4748m 
 -492.37475m   35.6249n  700.0000m  497.5747m  492.3748m 
 -492.27475m   35.7910n  700.0000m  497.6747m  492.2748m 
 -492.17475m   35.9582n  700.0000m  497.7747m  492.1748m 
 -492.07475m   36.1263n  700.0000m  497.8747m  492.0748m 
 -491.97475m   36.2954n  700.0000m  497.9747m  491.9748m 
 -491.87475m   36.4654n  700.0000m  498.0747m  491.8748m 
 -491.77475m   36.6365n  700.0000m  498.1747m  491.7748m 
 -491.67475m   36.8085n  700.0000m  498.2747m  491.6748m 
 -491.57475m   36.9815n  700.0000m  498.3747m  491.5748m 
 -491.47475m   37.1555n  700.0000m  498.4747m  491.4748m 
 -491.37475m   37.3305n  700.0000m  498.5747m  491.3748m 
 -491.27475m   37.5065n  700.0000m  498.6747m  491.2748m 
 -491.17475m   37.6836n  700.0000m  498.7747m  491.1748m 
 -491.07475m   37.8616n  700.0000m  498.8747m  491.0748m 
 -490.97475m   38.0407n  700.0000m  498.9747m  490.9748m 
 -490.87475m   38.2208n  700.0000m  499.0747m  490.8748m 
 -490.77475m   38.4019n  700.0000m  499.1747m  490.7748m 
 -490.67475m   38.5841n  700.0000m  499.2747m  490.6748m 
 -490.57475m   38.7674n  700.0000m  499.3747m  490.5748m 
 -490.47475m   38.9517n  700.0000m  499.4747m  490.4748m 
 -490.37475m   39.1370n  700.0000m  499.5747m  490.3748m 
 -490.27475m   39.3234n  700.0000m  499.6747m  490.2748m 
 -490.17475m   39.5109n  700.0000m  499.7747m  490.1748m 
 -490.07475m   39.6995n  700.0000m  499.8747m  490.0748m 
 -489.97475m   39.8892n  700.0000m  499.9747m  489.9748m 
 -489.87475m   40.0799n  700.0000m  500.0747m  489.8748m 
 -489.77475m   40.2718n  700.0000m  500.1747m  489.7748m 
 -489.67475m   40.4647n  700.0000m  500.2747m  489.6748m 
 -489.57475m   40.6588n  700.0000m  500.3747m  489.5748m 
 -489.47475m   40.8540n  700.0000m  500.4747m  489.4748m 
 -489.37475m   41.0503n  700.0000m  500.5747m  489.3748m 
 -489.27475m   41.2478n  700.0000m  500.6747m  489.2748m 
 -489.17475m   41.4463n  700.0000m  500.7747m  489.1748m 
 -489.07475m   41.6461n  700.0000m  500.8747m  489.0748m 
 -488.97475m   41.8469n  700.0000m  500.9747m  488.9748m 
 -488.87475m   42.0490n  700.0000m  501.0747m  488.8748m 
 -488.77475m   42.2522n  700.0000m  501.1747m  488.7748m 
 -488.67475m   42.4565n  700.0000m  501.2747m  488.6748m 
 -488.57475m   42.6621n  700.0000m  501.3747m  488.5748m 
 -488.47475m   42.8688n  700.0000m  501.4747m  488.4748m 
 -488.37475m   43.0767n  700.0000m  501.5747m  488.3748m 
 -488.27475m   43.2859n  700.0000m  501.6747m  488.2748m 
 -488.17475m   43.4962n  700.0000m  501.7747m  488.1748m 
 -488.07475m   43.7077n  700.0000m  501.8747m  488.0748m 
 -487.97475m   43.9205n  700.0000m  501.9747m  487.9748m 
 -487.87475m   44.1345n  700.0000m  502.0747m  487.8748m 
 -487.77475m   44.3497n  700.0000m  502.1747m  487.7748m 
 -487.67475m   44.5661n  700.0000m  502.2747m  487.6748m 
 -487.57475m   44.7838n  700.0000m  502.3747m  487.5748m 
 -487.47475m   45.0028n  700.0000m  502.4747m  487.4748m 
 -487.37475m   45.2230n  700.0000m  502.5747m  487.3748m 
 -487.27475m   45.4445n  700.0000m  502.6747m  487.2748m 
 -487.17475m   45.6673n  700.0000m  502.7747m  487.1748m 
 -487.07475m   45.8913n  700.0000m  502.8747m  487.0748m 
 -486.97475m   46.1167n  700.0000m  502.9747m  486.9748m 
 -486.87475m   46.3433n  700.0000m  503.0747m  486.8748m 
 -486.77475m   46.5713n  700.0000m  503.1747m  486.7748m 
 -486.67475m   46.8005n  700.0000m  503.2747m  486.6748m 
 -486.57475m   47.0311n  700.0000m  503.3747m  486.5748m 
 -486.47475m   47.2630n  700.0000m  503.4747m  486.4748m 
 -486.37475m   47.4963n  700.0000m  503.5747m  486.3748m 
 -486.27475m   47.7308n  700.0000m  503.6747m  486.2748m 
 -486.17475m   47.9668n  700.0000m  503.7747m  486.1748m 
 -486.07475m   48.2041n  700.0000m  503.8747m  486.0748m 
 -485.97475m   48.4428n  700.0000m  503.9747m  485.9748m 
 -485.87475m   48.6828n  700.0000m  504.0747m  485.8748m 
 -485.77475m   48.9242n  700.0000m  504.1747m  485.7748m 
 -485.67475m   49.1671n  700.0000m  504.2747m  485.6748m 
 -485.57475m   49.4113n  700.0000m  504.3747m  485.5748m 
 -485.47475m   49.6569n  700.0000m  504.4747m  485.4748m 
 -485.37475m   49.9040n  700.0000m  504.5747m  485.3748m 
 -485.27475m   50.1524n  700.0000m  504.6747m  485.2748m 
 -485.17475m   50.4024n  700.0000m  504.7747m  485.1748m 
 -485.07475m   50.6537n  700.0000m  504.8747m  485.0748m 
 -484.97475m   50.9065n  700.0000m  504.9747m  484.9748m 
 -484.87475m   51.1607n  700.0000m  505.0747m  484.8748m 
 -484.77475m   51.4165n  700.0000m  505.1747m  484.7748m 
 -484.67475m   51.6737n  700.0000m  505.2747m  484.6748m 
 -484.57475m   51.9323n  700.0000m  505.3747m  484.5748m 
 -484.47475m   52.1925n  700.0000m  505.4747m  484.4748m 
 -484.37475m   52.4542n  700.0000m  505.5747m  484.3748m 
 -484.27475m   52.7173n  700.0000m  505.6747m  484.2748m 
 -484.17475m   52.9820n  700.0000m  505.7747m  484.1748m 
 -484.07475m   53.2483n  700.0000m  505.8747m  484.0748m 
 -483.97475m   53.5160n  700.0000m  505.9747m  483.9748m 
 -483.87475m   53.7853n  700.0000m  506.0747m  483.8748m 
 -483.77475m   54.0562n  700.0000m  506.1747m  483.7748m 
 -483.67475m   54.3286n  700.0000m  506.2747m  483.6748m 
 -483.57475m   54.6026n  700.0000m  506.3747m  483.5748m 
 -483.47475m   54.8781n  700.0000m  506.4747m  483.4748m 
 -483.37475m   55.1553n  700.0000m  506.5747m  483.3748m 
 -483.27475m   55.4340n  700.0000m  506.6747m  483.2748m 
 -483.17475m   55.7144n  700.0000m  506.7747m  483.1748m 
 -483.07475m   55.9964n  700.0000m  506.8747m  483.0748m 
 -482.97475m   56.2800n  700.0000m  506.9747m  482.9748m 
 -482.87475m   56.5652n  700.0000m  507.0747m  482.8748m 
 -482.77475m   56.8521n  700.0000m  507.1747m  482.7748m 
 -482.67475m   57.1407n  700.0000m  507.2747m  482.6748m 
 -482.57475m   57.4309n  700.0000m  507.3747m  482.5748m 
 -482.47475m   57.7228n  700.0000m  507.4747m  482.4748m 
 -482.37475m   58.0163n  700.0000m  507.5747m  482.3748m 
 -482.27475m   58.3116n  700.0000m  507.6747m  482.2748m 
 -482.17475m   58.6086n  700.0000m  507.7747m  482.1748m 
 -482.07475m   58.9072n  700.0000m  507.8747m  482.0748m 
 -481.97475m   59.2076n  700.0000m  507.9747m  481.9748m 
 -481.87475m   59.5098n  700.0000m  508.0747m  481.8748m 
 -481.77475m   59.8136n  700.0000m  508.1747m  481.7748m 
 -481.67475m   60.1193n  700.0000m  508.2747m  481.6748m 
 -481.57475m   60.4267n  700.0000m  508.3747m  481.5748m 
 -481.47475m   60.7358n  700.0000m  508.4747m  481.4748m 
 -481.37475m   61.0468n  700.0000m  508.5747m  481.3748m 
 -481.27475m   61.3595n  700.0000m  508.6747m  481.2748m 
 -481.17475m   61.6741n  700.0000m  508.7747m  481.1748m 
 -481.07475m   61.9905n  700.0000m  508.8747m  481.0748m 
 -480.97475m   62.3086n  700.0000m  508.9747m  480.9748m 
 -480.87475m   62.6287n  700.0000m  509.0747m  480.8748m 
 -480.77475m   62.9506n  700.0000m  509.1747m  480.7748m 
 -480.67475m   63.2743n  700.0000m  509.2747m  480.6748m 
 -480.57475m   63.5999n  700.0000m  509.3747m  480.5748m 
 -480.47475m   63.9274n  700.0000m  509.4747m  480.4748m 
 -480.37475m   64.2568n  700.0000m  509.5747m  480.3748m 
 -480.27475m   64.5880n  700.0000m  509.6747m  480.2748m 
 -480.17475m   64.9212n  700.0000m  509.7747m  480.1748m 
 -480.07475m   65.2563n  700.0000m  509.8747m  480.0748m 
 -479.97475m   65.5934n  700.0000m  509.9747m  479.9748m 
 -479.87475m   65.9324n  700.0000m  510.0747m  479.8748m 
 -479.77475m   66.2733n  700.0000m  510.1747m  479.7748m 
 -479.67475m   66.6162n  700.0000m  510.2747m  479.6748m 
 -479.57475m   66.9611n  700.0000m  510.3747m  479.5748m 
 -479.47475m   67.3080n  700.0000m  510.4747m  479.4748m 
 -479.37475m   67.6569n  700.0000m  510.5747m  479.3748m 
 -479.27475m   68.0078n  700.0000m  510.6747m  479.2748m 
 -479.17475m   68.3607n  700.0000m  510.7747m  479.1748m 
 -479.07475m   68.7157n  700.0000m  510.8747m  479.0748m 
 -478.97475m   69.0727n  700.0000m  510.9747m  478.9748m 
 -478.87475m   69.4318n  700.0000m  511.0747m  478.8748m 
 -478.77475m   69.7930n  700.0000m  511.1747m  478.7748m 
 -478.67475m   70.1562n  700.0000m  511.2747m  478.6748m 
 -478.57475m   70.5216n  700.0000m  511.3747m  478.5748m 
 -478.47475m   70.8890n  700.0000m  511.4747m  478.4748m 
 -478.37475m   71.2586n  700.0000m  511.5747m  478.3748m 
 -478.27475m   71.6303n  700.0000m  511.6747m  478.2748m 
 -478.17475m   72.0041n  700.0000m  511.7747m  478.1748m 
 -478.07475m   72.3802n  700.0000m  511.8747m  478.0748m 
 -477.97475m   72.7584n  700.0000m  511.9747m  477.9748m 
 -477.87475m   73.1387n  700.0000m  512.0747m  477.8749m 
 -477.77475m   73.5213n  700.0000m  512.1747m  477.7749m 
 -477.67475m   73.9061n  700.0000m  512.2747m  477.6749m 
 -477.57475m   74.2931n  700.0000m  512.3747m  477.5749m 
 -477.47475m   74.6823n  700.0000m  512.4747m  477.4749m 
 -477.37475m   75.0738n  700.0000m  512.5747m  477.3749m 
 -477.27475m   75.4676n  700.0000m  512.6747m  477.2749m 
 -477.17475m   75.8636n  700.0000m  512.7747m  477.1749m 
 -477.07475m   76.2619n  700.0000m  512.8747m  477.0749m 
 -476.97475m   76.6625n  700.0000m  512.9747m  476.9749m 
 -476.87475m   77.0654n  700.0000m  513.0747m  476.8749m 
 -476.77475m   77.4707n  700.0000m  513.1747m  476.7749m 
 -476.67475m   77.8783n  700.0000m  513.2747m  476.6749m 
 -476.57475m   78.2883n  700.0000m  513.3747m  476.5749m 
 -476.47475m   78.7006n  700.0000m  513.4747m  476.4749m 
 -476.37475m   79.1153n  700.0000m  513.5747m  476.3749m 
 -476.27475m   79.5324n  700.0000m  513.6747m  476.2749m 
 -476.17475m   79.9519n  700.0000m  513.7747m  476.1749m 
 -476.07475m   80.3739n  700.0000m  513.8747m  476.0749m 
 -475.97475m   80.7982n  700.0000m  513.9747m  475.9749m 
 -475.87475m   81.2251n  700.0000m  514.0747m  475.8749m 
 -475.77475m   81.6544n  700.0000m  514.1747m  475.7749m 
 -475.67475m   82.0862n  700.0000m  514.2747m  475.6749m 
 -475.57475m   82.5204n  700.0000m  514.3747m  475.5749m 
 -475.47475m   82.9572n  700.0000m  514.4747m  475.4749m 
 -475.37475m   83.3966n  700.0000m  514.5747m  475.3749m 
 -475.27475m   83.8384n  700.0000m  514.6747m  475.2749m 
 -475.17475m   84.2828n  700.0000m  514.7747m  475.1749m 
 -475.07475m   84.7298n  700.0000m  514.8747m  475.0749m 
 -474.97475m   85.1794n  700.0000m  514.9747m  474.9749m 
 -474.87475m   85.6315n  700.0000m  515.0747m  474.8749m 
 -474.77475m   86.0863n  700.0000m  515.1747m  474.7749m 
 -474.67475m   86.5437n  700.0000m  515.2747m  474.6749m 
 -474.57475m   87.0038n  700.0000m  515.3747m  474.5749m 
 -474.47475m   87.4665n  700.0000m  515.4747m  474.4749m 
 -474.37475m   87.9319n  700.0000m  515.5747m  474.3749m 
 -474.27475m   88.4000n  700.0000m  515.6747m  474.2749m 
 -474.17475m   88.8708n  700.0000m  515.7747m  474.1749m 
 -474.07475m   89.3443n  700.0000m  515.8747m  474.0749m 
 -473.97475m   89.8206n  700.0000m  515.9747m  473.9749m 
 -473.87475m   90.2996n  700.0000m  516.0747m  473.8749m 
 -473.77475m   90.7814n  700.0000m  516.1747m  473.7749m 
 -473.67475m   91.2659n  700.0000m  516.2747m  473.6749m 
 -473.57475m   91.7533n  700.0000m  516.3747m  473.5749m 
 -473.47475m   92.2435n  700.0000m  516.4747m  473.4749m 
 -473.37475m   92.7365n  700.0000m  516.5747m  473.3749m 
 -473.27475m   93.2324n  700.0000m  516.6747m  473.2749m 
 -473.17475m   93.7312n  700.0000m  516.7747m  473.1749m 
 -473.07475m   94.2328n  700.0000m  516.8747m  473.0749m 
 -472.97475m   94.7374n  700.0000m  516.9747m  472.9749m 
 -472.87475m   95.2448n  700.0000m  517.0747m  472.8749m 
 -472.77475m   95.7552n  700.0000m  517.1747m  472.7749m 
 -472.67475m   96.2686n  700.0000m  517.2747m  472.6749m 
 -472.57475m   96.7849n  700.0000m  517.3747m  472.5749m 
 -472.47475m   97.3042n  700.0000m  517.4747m  472.4749m 
 -472.37475m   97.8265n  700.0000m  517.5747m  472.3749m 
 -472.27475m   98.3519n  700.0000m  517.6747m  472.2749m 
 -472.17475m   98.8803n  700.0000m  517.7747m  472.1749m 
 -472.07475m   99.4117n  700.0000m  517.8747m  472.0749m 
 -471.97475m   99.9462n  700.0000m  517.9747m  471.9749m 
 -471.87475m  100.4839n  700.0000m  518.0747m  471.8749m 
 -471.77475m  101.0246n  700.0000m  518.1747m  471.7749m 
 -471.67475m  101.5684n  700.0000m  518.2747m  471.6749m 
 -471.57475m  102.1155n  700.0000m  518.3747m  471.5749m 
 -471.47475m  102.6656n  700.0000m  518.4747m  471.4749m 
 -471.37475m  103.2190n  700.0000m  518.5747m  471.3749m 
 -471.27475m  103.7756n  700.0000m  518.6747m  471.2749m 
 -471.17475m  104.3353n  700.0000m  518.7747m  471.1749m 
 -471.07475m  104.8984n  700.0000m  518.8747m  471.0749m 
 -470.97475m  105.4647n  700.0000m  518.9747m  470.9749m 
 -470.87475m  106.0342n  700.0000m  519.0747m  470.8749m 
 -470.77475m  106.6071n  700.0000m  519.1747m  470.7749m 
 -470.67475m  107.1833n  700.0000m  519.2747m  470.6749m 
 -470.57475m  107.7628n  700.0000m  519.3747m  470.5749m 
 -470.47475m  108.3457n  700.0000m  519.4747m  470.4749m 
 -470.37475m  108.9320n  700.0000m  519.5747m  470.3749m 
 -470.27475m  109.5216n  700.0000m  519.6747m  470.2749m 
 -470.17475m  110.1147n  700.0000m  519.7747m  470.1749m 
 -470.07475m  110.7112n  700.0000m  519.8747m  470.0749m 
 -469.97475m  111.3112n  700.0000m  519.9747m  469.9749m 
 -469.87475m  111.9146n  700.0000m  520.0747m  469.8749m 
 -469.77475m  112.5216n  700.0000m  520.1747m  469.7749m 
 -469.67475m  113.1320n  700.0000m  520.2747m  469.6749m 
 -469.57475m  113.7460n  700.0000m  520.3747m  469.5749m 
 -469.47475m  114.3636n  700.0000m  520.4747m  469.4749m 
 -469.37475m  114.9847n  700.0000m  520.5747m  469.3749m 
 -469.27475m  115.6094n  700.0000m  520.6747m  469.2749m 
 -469.17475m  116.2378n  700.0000m  520.7747m  469.1749m 
 -469.07475m  116.8698n  700.0000m  520.8747m  469.0749m 
 -468.97475m  117.5054n  700.0000m  520.9747m  468.9749m 
 -468.87475m  118.1448n  700.0000m  521.0747m  468.8749m 
 -468.77475m  118.7878n  700.0000m  521.1747m  468.7749m 
 -468.67475m  119.4346n  700.0000m  521.2747m  468.6749m 
 -468.57475m  120.0851n  700.0000m  521.3747m  468.5749m 
 -468.47475m  120.7394n  700.0000m  521.4747m  468.4749m 
 -468.37475m  121.3975n  700.0000m  521.5747m  468.3749m 
 -468.27475m  122.0594n  700.0000m  521.6747m  468.2749m 
 -468.17475m  122.7251n  700.0000m  521.7747m  468.1749m 
 -468.07475m  123.3947n  700.0000m  521.8747m  468.0749m 
 -467.97475m  124.0682n  700.0000m  521.9747m  467.9749m 
 -467.87475m  124.7456n  700.0000m  522.0747m  467.8749m 
 -467.77475m  125.4269n  700.0000m  522.1747m  467.7749m 
 -467.67475m  126.1122n  700.0000m  522.2747m  467.6749m 
 -467.57475m  126.8014n  700.0000m  522.3747m  467.5749m 
 -467.47475m  127.4947n  700.0000m  522.4747m  467.4749m 
 -467.37475m  128.1920n  700.0000m  522.5747m  467.3749m 
 -467.27475m  128.8933n  700.0000m  522.6747m  467.2749m 
 -467.17475m  129.5986n  700.0000m  522.7747m  467.1749m 
 -467.07475m  130.3081n  700.0000m  522.8747m  467.0749m 
 -466.97475m  131.0217n  700.0000m  522.9747m  466.9749m 
 -466.87475m  131.7394n  700.0000m  523.0747m  466.8749m 
 -466.77475m  132.4613n  700.0000m  523.1747m  466.7749m 
 -466.67475m  133.1874n  700.0000m  523.2747m  466.6749m 
 -466.57475m  133.9177n  700.0000m  523.3747m  466.5749m 
 -466.47475m  134.6522n  700.0000m  523.4747m  466.4749m 
 -466.37475m  135.3910n  700.0000m  523.5747m  466.3749m 
 -466.27475m  136.1341n  700.0000m  523.6747m  466.2749m 
 -466.17475m  136.8815n  700.0000m  523.7747m  466.1749m 
 -466.07475m  137.6332n  700.0000m  523.8747m  466.0749m 
 -465.97475m  138.3893n  700.0000m  523.9747m  465.9749m 
 -465.87475m  139.1498n  700.0000m  524.0747m  465.8749m 
 -465.77475m  139.9147n  700.0000m  524.1747m  465.7749m 
 -465.67475m  140.6840n  700.0000m  524.2747m  465.6749m 
 -465.57475m  141.4578n  700.0000m  524.3747m  465.5749m 
 -465.47475m  142.2361n  700.0000m  524.4747m  465.4749m 
 -465.37475m  143.0189n  700.0000m  524.5747m  465.3749m 
 -465.27475m  143.8063n  700.0000m  524.6747m  465.2750m 
 -465.17475m  144.5982n  700.0000m  524.7747m  465.1750m 
 -465.07475m  145.3947n  700.0000m  524.8747m  465.0750m 
 -464.97475m  146.1959n  700.0000m  524.9747m  464.9750m 
 -464.87475m  147.0017n  700.0000m  525.0747m  464.8750m 
 -464.77475m  147.8121n  700.0000m  525.1747m  464.7750m 
 -464.67475m  148.6273n  700.0000m  525.2747m  464.6750m 
 -464.57475m  149.4472n  700.0000m  525.3747m  464.5750m 
 -464.47475m  150.2719n  700.0000m  525.4747m  464.4750m 
 -464.37475m  151.1014n  700.0000m  525.5747m  464.3750m 
 -464.27475m  151.9357n  700.0000m  525.6747m  464.2750m 
 -464.17475m  152.7748n  700.0000m  525.7747m  464.1750m 
 -464.07475m  153.6188n  700.0000m  525.8747m  464.0750m 
 -463.97475m  154.4678n  700.0000m  525.9747m  463.9750m 
 -463.87475m  155.3216n  700.0000m  526.0747m  463.8750m 
 -463.77475m  156.1804n  700.0000m  526.1747m  463.7750m 
 -463.67475m  157.0442n  700.0000m  526.2747m  463.6750m 
 -463.57475m  157.9130n  700.0000m  526.3747m  463.5750m 
