 ****** HSPICE -- Q-2020.03-SP2-2 linux64 (Nov  1 2020) ******                  
  Copyright (c) 1986 - 2025 by Synopsys, Inc. All Rights Reserved.              
  This software and the associated documentation are proprietary
  to Synopsys, Inc. This software may only be used in accordance
  with the terms and conditions of a written license agreement with
  Synopsys, Inc. All other use, reproduction, or distribution of
  this software is strictly prohibited.
  Input File: SRAM_RSNM_TT_DifWordline.sp                                       
  Command line options: /RAID2/cad/synopsys/hspice/2020.03-sp2-2/hspice/linux64/hspice -i SRAM_RSNM_TT_DifWordline.sp -o SRAM_RSNM_TT_DifWordline.lis
  Start time: Mon Mar 24 14:10:35 2025
 lic:  
 lic: FLEXlm: SDK_12.6 
 lic: USER:   es25MCS042           HOSTNAME: ee28 
 lic: HOSTID: "d85ed3efc19a"       PID:      4172 
 lic: Using FLEXlm license file: 
 lic: 26585@lshc 
 lic: Checkout 1 hspice 
 lic: License/Maintenance for hspice will expire on 14-may-2025/2024.09 
 lic: 238(in_use)/1100(total) FLOATING license(s) on SERVER 26585@lshc 
 lic:   
  
      
             
 Warning:'Floating bulk' occurs 1 times
 Summary of floating bulk:
 -----------------------
 |Node      |Device    |
 |----------+----------|
 |x         |mpr       |
 -----------------------
              
 *****************************************************************
 ******  option summary
 ******
 runlvl  = 3         bypass  = 2.0000    
 ******
 .title noise margin in read operation

 ****** dc transfer curves tnom=  25.000 temp=  25.000 ******
x

 volt         voltage    voltage    voltage    voltage   
             q          qb         gl         gr         
 -494.97475m  189.0547m  700.0000m  -14.8716n  889.0547m 
 -494.87475m  189.0716m  700.0000m  141.4064u  888.9302m 
 -494.77475m  189.0885m  700.0000m  282.8277u  888.8057m 
 -494.67475m  189.1055m  700.0000m  424.2490u  888.6812m 
 -494.57475m  189.1224m  700.0000m  565.6703u  888.5567m 
 -494.47475m  189.1394m  700.0000m  707.0916u  888.4322m 
 -494.37475m  189.1563m  700.0000m  848.5129u  888.3078m 
 -494.27475m  189.1733m  700.0000m  989.9341u  888.1833m 
 -494.17475m  189.1903m  700.0000m    1.1314m  888.0589m 
 -494.07475m  189.2073m  700.0000m    1.2728m  887.9345m 
 -493.97475m  189.2243m  700.0000m    1.4142m  887.8101m 
 -493.87475m  189.2413m  700.0000m    1.5556m  887.6857m 
 -493.77475m  189.2583m  700.0000m    1.6970m  887.5613m 
 -493.67475m  189.2754m  700.0000m    1.8385m  887.4369m 
 -493.57475m  189.2924m  700.0000m    1.9799m  887.3125m 
 -493.47475m  189.3095m  700.0000m    2.1213m  887.1882m 
 -493.37475m  189.3266m  700.0000m    2.2627m  887.0638m 
 -493.27475m  189.3437m  700.0000m    2.4041m  886.9395m 
 -493.17475m  189.3608m  700.0000m    2.5456m  886.8152m 
 -493.07475m  189.3779m  700.0000m    2.6870m  886.6909m 
 -492.97475m  189.3950m  700.0000m    2.8284m  886.5666m 
 -492.87475m  189.4121m  700.0000m    2.9698m  886.4423m 
 -492.77475m  189.4293m  700.0000m    3.1113m  886.3180m 
 -492.67475m  189.4464m  700.0000m    3.2527m  886.1937m 
 -492.57475m  189.4636m  700.0000m    3.3941m  886.0695m 
 -492.47475m  189.4807m  700.0000m    3.5355m  885.9452m 
 -492.37475m  189.4979m  700.0000m    3.6769m  885.8210m 
 -492.27475m  189.5151m  700.0000m    3.8184m  885.6967m 
 -492.17475m  189.5323m  700.0000m    3.9598m  885.5725m 
 -492.07475m  189.5495m  700.0000m    4.1012m  885.4483m 
 -491.97475m  189.5668m  700.0000m    4.2426m  885.3241m 
 -491.87475m  189.5840m  700.0000m    4.3840m  885.1999m 
 -491.77475m  189.6012m  700.0000m    4.5255m  885.0758m 
 -491.67475m  189.6185m  700.0000m    4.6669m  884.9516m 
 -491.57475m  189.6358m  700.0000m    4.8083m  884.8274m 
 -491.47475m  189.6531m  700.0000m    4.9497m  884.7033m 
 -491.37475m  189.6703m  700.0000m    5.0912m  884.5792m 
 -491.27475m  189.6877m  700.0000m    5.2326m  884.4551m 
 -491.17475m  189.7050m  700.0000m    5.3740m  884.3310m 
 -491.07475m  189.7223m  700.0000m    5.5154m  884.2069m 
 -490.97475m  189.7396m  700.0000m    5.6568m  884.0828m 
 -490.87475m  189.7570m  700.0000m    5.7983m  883.9587m 
 -490.77475m  189.7743m  700.0000m    5.9397m  883.8346m 
 -490.67475m  189.7917m  700.0000m    6.0811m  883.7106m 
 -490.57475m  189.8091m  700.0000m    6.2225m  883.5865m 
 -490.47475m  189.8265m  700.0000m    6.3639m  883.4625m 
 -490.37475m  189.8439m  700.0000m    6.5054m  883.3385m 
 -490.27475m  189.8613m  700.0000m    6.6468m  883.2145m 
 -490.17475m  189.8787m  700.0000m    6.7882m  883.0905m 
 -490.07475m  189.8961m  700.0000m    6.9296m  882.9665m 
 -489.97475m  189.9136m  700.0000m    7.0710m  882.8425m 
 -489.87475m  189.9310m  700.0000m    7.2125m  882.7186m 
 -489.77475m  189.9485m  700.0000m    7.3539m  882.5946m 
 -489.67475m  189.9660m  700.0000m    7.4953m  882.4707m 
 -489.57475m  189.9835m  700.0000m    7.6367m  882.3467m 
 -489.47475m  190.0010m  700.0000m    7.7782m  882.2228m 
 -489.37475m  190.0185m  700.0000m    7.9196m  882.0989m 
 -489.27475m  190.0360m  700.0000m    8.0610m  881.9750m 
 -489.17475m  190.0536m  700.0000m    8.2024m  881.8511m 
 -489.07475m  190.0711m  700.0000m    8.3438m  881.7272m 
 -488.97475m  190.0887m  700.0000m    8.4853m  881.6034m 
 -488.87475m  190.1062m  700.0000m    8.6267m  881.4795m 
 -488.77475m  190.1238m  700.0000m    8.7681m  881.3557m 
 -488.67475m  190.1414m  700.0000m    8.9095m  881.2319m 
 -488.57475m  190.1590m  700.0000m    9.0509m  881.1080m 
 -488.47475m  190.1766m  700.0000m    9.1924m  880.9842m 
 -488.37475m  190.1942m  700.0000m    9.3338m  880.8604m 
 -488.27475m  190.2119m  700.0000m    9.4752m  880.7366m 
 -488.17475m  190.2295m  700.0000m    9.6166m  880.6129m 
 -488.07475m  190.2472m  700.0000m    9.7581m  880.4891m 
 -487.97475m  190.2648m  700.0000m    9.8995m  880.3653m 
 -487.87475m  190.2825m  700.0000m   10.0409m  880.2416m 
 -487.77475m  190.3002m  700.0000m   10.1823m  880.1179m 
 -487.67475m  190.3179m  700.0000m   10.3237m  879.9942m 
 -487.57475m  190.3356m  700.0000m   10.4652m  879.8705m 
 -487.47475m  190.3534m  700.0000m   10.6066m  879.7468m 
 -487.37475m  190.3711m  700.0000m   10.7480m  879.6231m 
 -487.27475m  190.3888m  700.0000m   10.8894m  879.4994m 
 -487.17475m  190.4066m  700.0000m   11.0308m  879.3757m 
 -487.07475m  190.4244m  700.0000m   11.1723m  879.2521m 
 -486.97475m  190.4421m  700.0000m   11.3137m  879.1284m 
 -486.87475m  190.4599m  700.0000m   11.4551m  879.0048m 
 -486.77475m  190.4777m  700.0000m   11.5965m  878.8812m 
 -486.67475m  190.4956m  700.0000m   11.7380m  878.7576m 
 -486.57475m  190.5134m  700.0000m   11.8794m  878.6340m 
 -486.47475m  190.5312m  700.0000m   12.0208m  878.5104m 
 -486.37475m  190.5491m  700.0000m   12.1622m  878.3868m 
 -486.27475m  190.5669m  700.0000m   12.3036m  878.2633m 
 -486.17475m  190.5848m  700.0000m   12.4451m  878.1397m 
 -486.07475m  190.6027m  700.0000m   12.5865m  878.0162m 
 -485.97475m  190.6206m  700.0000m   12.7279m  877.8927m 
 -485.87475m  190.6385m  700.0000m   12.8693m  877.7691m 
 -485.77475m  190.6564m  700.0000m   13.0107m  877.6456m 
 -485.67475m  190.6743m  700.0000m   13.1522m  877.5221m 
 -485.57475m  190.6923m  700.0000m   13.2936m  877.3987m 
 -485.47475m  190.7102m  700.0000m   13.4350m  877.2752m 
 -485.37475m  190.7282m  700.0000m   13.5764m  877.1517m 
 -485.27475m  190.7462m  700.0000m   13.7178m  877.0283m 
 -485.17475m  190.7641m  700.0000m   13.8593m  876.9049m 
 -485.07475m  190.7821m  700.0000m   14.0007m  876.7814m 
 -484.97475m  190.8001m  700.0000m   14.1421m  876.6580m 
 -484.87475m  190.8182m  700.0000m   14.2835m  876.5346m 
 -484.77475m  190.8362m  700.0000m   14.4250m  876.4112m 
 -484.67475m  190.8542m  700.0000m   14.5664m  876.2878m 
 -484.57475m  190.8723m  700.0000m   14.7078m  876.1645m 
 -484.47475m  190.8904m  700.0000m   14.8492m  876.0411m 
 -484.37475m  190.9084m  700.0000m   14.9906m  875.9178m 
 -484.27475m  190.9265m  700.0000m   15.1321m  875.7944m 
 -484.17475m  190.9446m  700.0000m   15.2735m  875.6711m 
 -484.07475m  190.9627m  700.0000m   15.4149m  875.5478m 
 -483.97475m  190.9809m  700.0000m   15.5563m  875.4245m 
 -483.87475m  190.9990m  700.0000m   15.6977m  875.3012m 
 -483.77475m  191.0171m  700.0000m   15.8392m  875.1779m 
 -483.67475m  191.0353m  700.0000m   15.9806m  875.0547m 
 -483.57475m  191.0535m  700.0000m   16.1220m  874.9314m 
 -483.47475m  191.0716m  700.0000m   16.2634m  874.8082m 
 -483.37475m  191.0898m  700.0000m   16.4049m  874.6850m 
 -483.27475m  191.1080m  700.0000m   16.5463m  874.5617m 
 -483.17475m  191.1263m  700.0000m   16.6877m  874.4385m 
 -483.07475m  191.1445m  700.0000m   16.8291m  874.3153m 
 -482.97475m  191.1627m  700.0000m   16.9705m  874.1922m 
 -482.87475m  191.1810m  700.0000m   17.1120m  874.0690m 
 -482.77475m  191.1992m  700.0000m   17.2534m  873.9458m 
 -482.67475m  191.2175m  700.0000m   17.3948m  873.8227m 
 -482.57475m  191.2358m  700.0000m   17.5362m  873.6995m 
 -482.47475m  191.2541m  700.0000m   17.6776m  873.5764m 
 -482.37475m  191.2724m  700.0000m   17.8191m  873.4533m 
 -482.27475m  191.2907m  700.0000m   17.9605m  873.3302m 
 -482.17475m  191.3090m  700.0000m   18.1019m  873.2071m 
 -482.07475m  191.3274m  700.0000m   18.2433m  873.0840m 
 -481.97475m  191.3457m  700.0000m   18.3847m  872.9610m 
 -481.87475m  191.3641m  700.0000m   18.5262m  872.8379m 
 -481.77475m  191.3825m  700.0000m   18.6676m  872.7149m 
 -481.67475m  191.4009m  700.0000m   18.8090m  872.5918m 
 -481.57475m  191.4193m  700.0000m   18.9504m  872.4688m 
 -481.47475m  191.4377m  700.0000m   19.0919m  872.3458m 
 -481.37475m  191.4561m  700.0000m   19.2333m  872.2228m 
 -481.27475m  191.4745m  700.0000m   19.3747m  872.0998m 
 -481.17475m  191.4930m  700.0000m   19.5161m  871.9768m 
 -481.07475m  191.5115m  700.0000m   19.6575m  871.8539m 
 -480.97475m  191.5299m  700.0000m   19.7990m  871.7309m 
 -480.87475m  191.5484m  700.0000m   19.9404m  871.6080m 
 -480.77475m  191.5669m  700.0000m   20.0818m  871.4851m 
 -480.67475m  191.5854m  700.0000m   20.2232m  871.3622m 
 -480.57475m  191.6039m  700.0000m   20.3646m  871.2393m 
 -480.47475m  191.6225m  700.0000m   20.5061m  871.1164m 
 -480.37475m  191.6410m  700.0000m   20.6475m  870.9935m 
 -480.27475m  191.6596m  700.0000m   20.7889m  870.8706m 
 -480.17475m  191.6781m  700.0000m   20.9303m  870.7478m 
 -480.07475m  191.6967m  700.0000m   21.0718m  870.6249m 
 -479.97475m  191.7153m  700.0000m   21.2132m  870.5021m 
 -479.87475m  191.7339m  700.0000m   21.3546m  870.3793m 
 -479.77475m  191.7525m  700.0000m   21.4960m  870.2565m 
 -479.67475m  191.7711m  700.0000m   21.6374m  870.1337m 
 -479.57475m  191.7898m  700.0000m   21.7789m  870.0109m 
 -479.47475m  191.8084m  700.0000m   21.9203m  869.8881m 
 -479.37475m  191.8271m  700.0000m   22.0617m  869.7653m 
 -479.27475m  191.8457m  700.0000m   22.2031m  869.6426m 
 -479.17475m  191.8644m  700.0000m   22.3445m  869.5198m 
 -479.07475m  191.8831m  700.0000m   22.4860m  869.3971m 
 -478.97475m  191.9018m  700.0000m   22.6274m  869.2744m 
 -478.87475m  191.9205m  700.0000m   22.7688m  869.1517m 
 -478.77475m  191.9393m  700.0000m   22.9102m  869.0290m 
 -478.67475m  191.9580m  700.0000m   23.0516m  868.9063m 
 -478.57475m  191.9768m  700.0000m   23.1931m  868.7837m 
 -478.47475m  191.9955m  700.0000m   23.3345m  868.6610m 
 -478.37475m  192.0143m  700.0000m   23.4759m  868.5384m 
 -478.27475m  192.0331m  700.0000m   23.6173m  868.4157m 
 -478.17475m  192.0519m  700.0000m   23.7588m  868.2931m 
 -478.07475m  192.0707m  700.0000m   23.9002m  868.1705m 
 -477.97475m  192.0895m  700.0000m   24.0416m  868.0479m 
 -477.87475m  192.1084m  700.0000m   24.1830m  867.9253m 
 -477.77475m  192.1272m  700.0000m   24.3244m  867.8028m 
 -477.67475m  192.1461m  700.0000m   24.4659m  867.6802m 
 -477.57475m  192.1650m  700.0000m   24.6073m  867.5577m 
 -477.47475m  192.1839m  700.0000m   24.7487m  867.4351m 
 -477.37475m  192.2028m  700.0000m   24.8901m  867.3126m 
 -477.27475m  192.2217m  700.0000m   25.0315m  867.1901m 
 -477.17475m  192.2406m  700.0000m   25.1730m  867.0676m 
 -477.07475m  192.2595m  700.0000m   25.3144m  866.9451m 
 -476.97475m  192.2785m  700.0000m   25.4558m  866.8226m 
 -476.87475m  192.2974m  700.0000m   25.5972m  866.7002m 
 -476.77475m  192.3164m  700.0000m   25.7387m  866.5777m 
 -476.67475m  192.3354m  700.0000m   25.8801m  866.4553m 
 -476.57475m  192.3544m  700.0000m   26.0215m  866.3328m 
 -476.47475m  192.3734m  700.0000m   26.1629m  866.2104m 
 -476.37475m  192.3924m  700.0000m   26.3043m  866.0880m 
 -476.27475m  192.4114m  700.0000m   26.4458m  865.9656m 
 -476.17475m  192.4305m  700.0000m   26.5872m  865.8433m 
 -476.07475m  192.4495m  700.0000m   26.7286m  865.7209m 
 -475.97475m  192.4686m  700.0000m   26.8700m  865.5985m 
 -475.87475m  192.4877m  700.0000m   27.0114m  865.4762m 
 -475.77475m  192.5068m  700.0000m   27.1529m  865.3539m 
 -475.67475m  192.5259m  700.0000m   27.2943m  865.2316m 
 -475.57475m  192.5450m  700.0000m   27.4357m  865.1092m 
 -475.47475m  192.5641m  700.0000m   27.5771m  864.9870m 
 -475.37475m  192.5833m  700.0000m   27.7185m  864.8647m 
 -475.27475m  192.6024m  700.0000m   27.8600m  864.7424m 
 -475.17475m  192.6216m  700.0000m   28.0014m  864.6201m 
 -475.07475m  192.6407m  700.0000m   28.1428m  864.4979m 
 -474.97475m  192.6599m  700.0000m   28.2842m  864.3757m 
 -474.87475m  192.6791m  700.0000m   28.4257m  864.2534m 
 -474.77475m  192.6984m  700.0000m   28.5671m  864.1312m 
 -474.67475m  192.7176m  700.0000m   28.7085m  864.0090m 
 -474.57475m  192.7368m  700.0000m   28.8499m  863.8869m 
 -474.47475m  192.7561m  700.0000m   28.9913m  863.7647m 
 -474.37475m  192.7753m  700.0000m   29.1328m  863.6425m 
 -474.27475m  192.7946m  700.0000m   29.2742m  863.5204m 
 -474.17475m  192.8139m  700.0000m   29.4156m  863.3982m 
 -474.07475m  192.8332m  700.0000m   29.5570m  863.2761m 
 -473.97475m  192.8525m  700.0000m   29.6984m  863.1540m 
 -473.87475m  192.8718m  700.0000m   29.8399m  863.0319m 
 -473.77475m  192.8912m  700.0000m   29.9813m  862.9098m 
 -473.67475m  192.9105m  700.0000m   30.1227m  862.7878m 
 -473.57475m  192.9299m  700.0000m   30.2641m  862.6657m 
 -473.47475m  192.9492m  700.0000m   30.4055m  862.5436m 
 -473.37475m  192.9686m  700.0000m   30.5470m  862.4216m 
 -473.27475m  192.9880m  700.0000m   30.6884m  862.2996m 
 -473.17475m  193.0074m  700.0000m   30.8298m  862.1776m 
 -473.07475m  193.0268m  700.0000m   30.9712m  862.0556m 
 -472.97475m  193.0463m  700.0000m   31.1127m  861.9336m 
 -472.87475m  193.0657m  700.0000m   31.2541m  861.8116m 
 -472.77475m  193.0852m  700.0000m   31.3955m  861.6896m 
 -472.67475m  193.1047m  700.0000m   31.5369m  861.5677m 
 -472.57475m  193.1241m  700.0000m   31.6783m  861.4458m 
 -472.47475m  193.1436m  700.0000m   31.8198m  861.3238m 
 -472.37475m  193.1631m  700.0000m   31.9612m  861.2019m 
 -472.27475m  193.1827m  700.0000m   32.1026m  861.0800m 
 -472.17475m  193.2022m  700.0000m   32.2440m  860.9581m 
 -472.07475m  193.2217m  700.0000m   32.3854m  860.8363m 
 -471.97475m  193.2413m  700.0000m   32.5269m  860.7144m 
 -471.87475m  193.2609m  700.0000m   32.6683m  860.5925m 
 -471.77475m  193.2805m  700.0000m   32.8097m  860.4707m 
 -471.67475m  193.3000m  700.0000m   32.9511m  860.3489m 
 -471.57475m  193.3197m  700.0000m   33.0925m  860.2271m 
 -471.47475m  193.3393m  700.0000m   33.2340m  860.1053m 
 -471.37475m  193.3589m  700.0000m   33.3754m  859.9835m 
 -471.27475m  193.3786m  700.0000m   33.5168m  859.8617m 
 -471.17475m  193.3982m  700.0000m   33.6582m  859.7399m 
 -471.07475m  193.4179m  700.0000m   33.7997m  859.6182m 
 -470.97475m  193.4376m  700.0000m   33.9411m  859.4964m 
 -470.87475m  193.4573m  700.0000m   34.0825m  859.3747m 
 -470.77475m  193.4770m  700.0000m   34.2239m  859.2530m 
 -470.67475m  193.4967m  699.9999m   34.3653m  859.1313m 
 -470.57475m  193.5164m  699.9999m   34.5068m  859.0096m 
 -470.47475m  193.5362m  699.9999m   34.6482m  858.8879m 
 -470.37475m  193.5559m  699.9999m   34.7896m  858.7663m 
 -470.27475m  193.5757m  699.9999m   34.9310m  858.6446m 
 -470.17475m  193.5955m  699.9999m   35.0724m  858.5230m 
 -470.07475m  193.6153m  699.9999m   35.2139m  858.4014m 
 -469.97475m  193.6351m  699.9999m   35.3553m  858.2797m 
 -469.87475m  193.6549m  699.9999m   35.4967m  858.1581m 
 -469.77475m  193.6747m  699.9999m   35.6381m  858.0366m 
 -469.67475m  193.6946m  699.9999m   35.7796m  857.9150m 
 -469.57475m  193.7144m  699.9999m   35.9210m  857.7934m 
 -469.47475m  193.7343m  699.9999m   36.0624m  857.6719m 
 -469.37475m  193.7542m  699.9999m   36.2038m  857.5503m 
 -469.27475m  193.7741m  699.9999m   36.3452m  857.4288m 
 -469.17475m  193.7940m  699.9999m   36.4867m  857.3073m 
 -469.07475m  193.8139m  699.9999m   36.6281m  857.1858m 
 -468.97475m  193.8339m  699.9999m   36.7695m  857.0643m 
 -468.87475m  193.8538m  699.9999m   36.9109m  856.9428m 
 -468.77475m  193.8738m  699.9999m   37.0523m  856.8214m 
 -468.67475m  193.8937m  699.9999m   37.1938m  856.6999m 
 -468.57475m  193.9137m  699.9999m   37.3352m  856.5785m 
 -468.47475m  193.9337m  699.9999m   37.4766m  856.4571m 
 -468.37475m  193.9537m  699.9999m   37.6180m  856.3356m 
 -468.27475m  193.9737m  699.9999m   37.7594m  856.2142m 
 -468.17475m  193.9938m  699.9999m   37.9009m  856.0929m 
 -468.07475m  194.0138m  699.9999m   38.0423m  855.9715m 
 -467.97475m  194.0339m  699.9999m   38.1837m  855.8501m 
 -467.87475m  194.0540m  699.9999m   38.3251m  855.7288m 
 -467.77475m  194.0741m  699.9999m   38.4666m  855.6074m 
 -467.67475m  194.0942m  699.9999m   38.6080m  855.4861m 
 -467.57475m  194.1143m  699.9999m   38.7494m  855.3648m 
 -467.47475m  194.1344m  699.9999m   38.8908m  855.2435m 
 -467.37475m  194.1545m  699.9999m   39.0322m  855.1222m 
 -467.27475m  194.1747m  699.9999m   39.1737m  855.0010m 
 -467.17475m  194.1948m  699.9999m   39.3151m  854.8797m 
 -467.07475m  194.2150m  699.9999m   39.4565m  854.7585m 
 -466.97475m  194.2352m  699.9999m   39.5979m  854.6372m 
 -466.87475m  194.2554m  699.9999m   39.7393m  854.5160m 
 -466.77475m  194.2756m  699.9999m   39.8808m  854.3948m 
 -466.67475m  194.2959m  699.9999m   40.0222m  854.2736m 
 -466.57475m  194.3161m  699.9999m   40.1636m  854.1524m 
 -466.47475m  194.3363m  699.9999m   40.3050m  854.0313m 
 -466.37475m  194.3566m  699.9999m   40.4464m  853.9101m 
 -466.27475m  194.3769m  699.9999m   40.5879m  853.7890m 
 -466.17475m  194.3972m  699.9999m   40.7293m  853.6678m 
 -466.07475m  194.4175m  699.9999m   40.8707m  853.5467m 
 -465.97475m  194.4378m  699.9999m   41.0121m  853.4256m 
 -465.87475m  194.4581m  699.9999m   41.1535m  853.3045m 
 -465.77475m  194.4785m  699.9999m   41.2950m  853.1834m 
 -465.67475m  194.4988m  699.9999m   41.4364m  853.0624m 
 -465.57475m  194.5192m  699.9999m   41.5778m  852.9413m 
 -465.47475m  194.5396m  699.9999m   41.7192m  852.8203m 
 -465.37475m  194.5600m  699.9999m   41.8607m  852.6993m 
 -465.27475m  194.5804m  699.9999m   42.0021m  852.5783m 
 -465.17475m  194.6008m  699.9999m   42.1435m  852.4573m 
 -465.07475m  194.6213m  699.9999m   42.2849m  852.3363m 
 -464.97475m  194.6417m  699.9999m   42.4263m  852.2153m 
 -464.87475m  194.6622m  699.9999m   42.5678m  852.0943m 
 -464.77475m  194.6826m  699.9999m   42.7092m  851.9734m 
 -464.67475m  194.7031m  699.9999m   42.8506m  851.8524m 
 -464.57475m  194.7236m  699.9999m   42.9920m  851.7315m 
 -464.47475m  194.7441m  699.9999m   43.1334m  851.6106m 
 -464.37475m  194.7647m  699.9999m   43.2749m  851.4897m 
 -464.27475m  194.7852m  699.9999m   43.4163m  851.3688m 
 -464.17475m  194.8057m  699.9999m   43.5577m  851.2480m 
 -464.07475m  194.8263m  699.9999m   43.6991m  851.1271m 
 -463.97475m  194.8469m  699.9999m   43.8405m  851.0063m 
 -463.87475m  194.8675m  699.9999m   43.9820m  850.8854m 
 -463.77475m  194.8881m  699.9999m   44.1234m  850.7646m 
 -463.67475m  194.9087m  699.9999m   44.2648m  850.6438m 
 -463.57475m  194.9293m  699.9999m   44.4062m  850.5230m 
