 ****** HSPICE -- Q-2020.03-SP2-2 linux64 (Nov  1 2020) ******                  
  Copyright (c) 1986 - 2025 by Synopsys, Inc. All Rights Reserved.              
  This software and the associated documentation are proprietary
  to Synopsys, Inc. This software may only be used in accordance
  with the terms and conditions of a written license agreement with
  Synopsys, Inc. All other use, reproduction, or distribution of
  this software is strictly prohibited.
  Input File: SRAM_SNM_SS.sp                                                    
  Command line options: /RAID2/cad/synopsys/hspice/2020.03-sp2-2/hspice/linux64/hspice -i SRAM_SNM_SS.sp -o SRAM_SNM_SS.lis
  Start time: Sun Mar 23 13:40:26 2025
 lic:  
 lic: FLEXlm: SDK_12.6 
 lic: USER:   es25MCS042           HOSTNAME: ee28 
 lic: HOSTID: "d85ed3efc19a"       PID:      127366 
 lic: Using FLEXlm license file: 
 lic: 26585@lshc 
 lic: Checkout 1 hspice 
 lic: License/Maintenance for hspice will expire on 14-may-2025/2024.09 
 lic: 180(in_use)/1100(total) FLOATING license(s) on SERVER 26585@lshc 
 lic:   
  
      
             
 Warning:'Floating bulk' occurs 1 times
 Summary of floating bulk:
 -----------------------
 |Node      |Device    |
 |----------+----------|
 |x         |mpr       |
 -----------------------
              
 *****************************************************************
 ******  option summary
 ******
 runlvl  = 3         bypass  = 2.0000    
 ******
 .title noise margin in hold operation

 ****** dc transfer curves tnom=  25.000 temp=  25.000 ******
x

 volt         voltage    voltage    voltage    voltage   
             q          qb         gl         gr         
 -494.97475m   17.0001n  700.0000m  -15.1156n  700.0000m 
 -494.87475m   17.0648n  700.0000m  141.4062u  699.8586m 
 -494.77475m   17.1300n  700.0000m  282.8275u  699.7172m 
 -494.67475m   17.1955n  700.0000m  424.2488u  699.5758m 
 -494.57475m   17.2615n  700.0000m  565.6701u  699.4343m 
 -494.47475m   17.3278n  700.0000m  707.0914u  699.2929m 
 -494.37475m   17.3945n  700.0000m  848.5127u  699.1515m 
 -494.27475m   17.4615n  700.0000m  989.9340u  699.0101m 
 -494.17475m   17.5290n  700.0000m    1.1314m  698.8686m 
 -494.07475m   17.5969n  700.0000m    1.2728m  698.7272m 
 -493.97475m   17.6652n  700.0000m    1.4142m  698.5858m 
 -493.87475m   17.7338n  700.0000m    1.5556m  698.4444m 
 -493.77475m   17.8029n  700.0000m    1.6970m  698.3030m 
 -493.67475m   17.8724n  700.0000m    1.8385m  698.1615m 
 -493.57475m   17.9423n  700.0000m    1.9799m  698.0201m 
 -493.47475m   18.0126n  700.0000m    2.1213m  697.8787m 
 -493.37475m   18.0833n  700.0000m    2.2627m  697.7373m 
 -493.27475m   18.1544n  700.0000m    2.4041m  697.5959m 
 -493.17475m   18.2259n  700.0000m    2.5456m  697.4544m 
 -493.07475m   18.2979n  700.0000m    2.6870m  697.3130m 
 -492.97475m   18.3702n  700.0000m    2.8284m  697.1716m 
 -492.87475m   18.4430n  700.0000m    2.9698m  697.0302m 
 -492.77475m   18.5162n  700.0000m    3.1113m  696.8887m 
 -492.67475m   18.5899n  700.0000m    3.2527m  696.7473m 
 -492.57475m   18.6639n  700.0000m    3.3941m  696.6059m 
 -492.47475m   18.7385n  700.0000m    3.5355m  696.4645m 
 -492.37475m   18.8134n  700.0000m    3.6769m  696.3231m 
 -492.27475m   18.8888n  700.0000m    3.8184m  696.1816m 
 -492.17475m   18.9646n  700.0000m    3.9598m  696.0402m 
 -492.07475m   19.0409n  700.0000m    4.1012m  695.8988m 
 -491.97475m   19.1176n  700.0000m    4.2426m  695.7574m 
 -491.87475m   19.1947n  700.0000m    4.3840m  695.6160m 
 -491.77475m   19.2723n  700.0000m    4.5255m  695.4745m 
 -491.67475m   19.3504n  700.0000m    4.6669m  695.3331m 
 -491.57475m   19.4289n  700.0000m    4.8083m  695.1917m 
 -491.47475m   19.5079n  700.0000m    4.9497m  695.0503m 
 -491.37475m   19.5873n  700.0000m    5.0912m  694.9089m 
 -491.27475m   19.6672n  700.0000m    5.2326m  694.7674m 
 -491.17475m   19.7476n  700.0000m    5.3740m  694.6260m 
 -491.07475m   19.8284n  700.0000m    5.5154m  694.4846m 
 -490.97475m   19.9098n  700.0000m    5.6568m  694.3432m 
 -490.87475m   19.9915n  700.0000m    5.7983m  694.2017m 
 -490.77475m   20.0738n  700.0000m    5.9397m  694.0603m 
 -490.67475m   20.1565n  700.0000m    6.0811m  693.9189m 
 -490.57475m   20.2398n  700.0000m    6.2225m  693.7775m 
 -490.47475m   20.3235n  700.0000m    6.3639m  693.6361m 
 -490.37475m   20.4077n  700.0000m    6.5054m  693.4946m 
 -490.27475m   20.4924n  700.0000m    6.6468m  693.3532m 
 -490.17475m   20.5775n  700.0000m    6.7882m  693.2118m 
 -490.07475m   20.6632n  700.0000m    6.9296m  693.0704m 
 -489.97475m   20.7494n  700.0000m    7.0710m  692.9290m 
 -489.87475m   20.8361n  700.0000m    7.2125m  692.7875m 
 -489.77475m   20.9233n  700.0000m    7.3539m  692.6461m 
 -489.67475m   21.0110n  700.0000m    7.4953m  692.5047m 
 -489.57475m   21.0992n  700.0000m    7.6367m  692.3633m 
 -489.47475m   21.1879n  700.0000m    7.7782m  692.2218m 
 -489.37475m   21.2771n  700.0000m    7.9196m  692.0804m 
 -489.27475m   21.3669n  700.0000m    8.0610m  691.9390m 
 -489.17475m   21.4572n  700.0000m    8.2024m  691.7976m 
 -489.07475m   21.5480n  700.0000m    8.3438m  691.6562m 
 -488.97475m   21.6393n  700.0000m    8.4853m  691.5147m 
 -488.87475m   21.7312n  700.0000m    8.6267m  691.3733m 
 -488.77475m   21.8236n  700.0000m    8.7681m  691.2319m 
 -488.67475m   21.9166n  700.0000m    8.9095m  691.0905m 
 -488.57475m   22.0101n  700.0000m    9.0509m  690.9491m 
 -488.47475m   22.1041n  700.0000m    9.1924m  690.8076m 
 -488.37475m   22.1987n  700.0000m    9.3338m  690.6662m 
 -488.27475m   22.2938n  700.0000m    9.4752m  690.5248m 
 -488.17475m   22.3895n  700.0000m    9.6166m  690.3834m 
 -488.07475m   22.4858n  700.0000m    9.7581m  690.2419m 
 -487.97475m   22.5826n  700.0000m    9.8995m  690.1005m 
 -487.87475m   22.6800n  700.0000m   10.0409m  689.9591m 
 -487.77475m   22.7779n  700.0000m   10.1823m  689.8177m 
 -487.67475m   22.8764n  700.0000m   10.3237m  689.6763m 
 -487.57475m   22.9755n  700.0000m   10.4652m  689.5348m 
 -487.47475m   23.0752n  700.0000m   10.6066m  689.3934m 
 -487.37475m   23.1754n  700.0000m   10.7480m  689.2520m 
 -487.27475m   23.2763n  700.0000m   10.8894m  689.1106m 
 -487.17475m   23.3777n  700.0000m   11.0308m  688.9692m 
 -487.07475m   23.4797n  700.0000m   11.1723m  688.8277m 
 -486.97475m   23.5823n  700.0000m   11.3137m  688.6863m 
 -486.87475m   23.6855n  700.0000m   11.4551m  688.5449m 
 -486.77475m   23.7893n  700.0000m   11.5965m  688.4035m 
 -486.67475m   23.8937n  700.0000m   11.7380m  688.2621m 
 -486.57475m   23.9987n  700.0000m   11.8794m  688.1206m 
 -486.47475m   24.1044n  700.0000m   12.0208m  687.9792m 
 -486.37475m   24.2106n  700.0000m   12.1622m  687.8378m 
 -486.27475m   24.3175n  700.0000m   12.3036m  687.6964m 
 -486.17475m   24.4250n  700.0000m   12.4451m  687.5549m 
 -486.07475m   24.5331n  700.0000m   12.5865m  687.4135m 
 -485.97475m   24.6418n  700.0000m   12.7279m  687.2721m 
 -485.87475m   24.7512n  700.0000m   12.8693m  687.1307m 
 -485.77475m   24.8612n  700.0000m   13.0107m  686.9893m 
 -485.67475m   24.9719n  700.0000m   13.1522m  686.8478m 
 -485.57475m   25.0832n  700.0000m   13.2936m  686.7064m 
 -485.47475m   25.1951n  700.0000m   13.4350m  686.5650m 
 -485.37475m   25.3077n  700.0000m   13.5764m  686.4236m 
 -485.27475m   25.4210n  700.0000m   13.7178m  686.2822m 
 -485.17475m   25.5349n  700.0000m   13.8593m  686.1407m 
 -485.07475m   25.6495n  700.0000m   14.0007m  685.9993m 
 -484.97475m   25.7647n  700.0000m   14.1421m  685.8579m 
 -484.87475m   25.8806n  700.0000m   14.2835m  685.7165m 
 -484.77475m   25.9972n  700.0000m   14.4250m  685.5750m 
 -484.67475m   26.1145n  700.0000m   14.5664m  685.4336m 
 -484.57475m   26.2325n  700.0000m   14.7078m  685.2922m 
 -484.47475m   26.3511n  700.0000m   14.8492m  685.1508m 
 -484.37475m   26.4705n  700.0000m   14.9906m  685.0094m 
 -484.27475m   26.5905n  700.0000m   15.1321m  684.8679m 
 -484.17475m   26.7112n  700.0000m   15.2735m  684.7265m 
 -484.07475m   26.8327n  700.0000m   15.4149m  684.5851m 
 -483.97475m   26.9548n  700.0000m   15.5563m  684.4437m 
 -483.87475m   27.0777n  700.0000m   15.6977m  684.3023m 
 -483.77475m   27.2012n  700.0000m   15.8392m  684.1608m 
 -483.67475m   27.3255n  700.0000m   15.9806m  684.0194m 
 -483.57475m   27.4505n  700.0000m   16.1220m  683.8780m 
 -483.47475m   27.5763n  700.0000m   16.2634m  683.7366m 
 -483.37475m   27.7027n  700.0000m   16.4049m  683.5952m 
 -483.27475m   27.8300n  700.0000m   16.5463m  683.4537m 
 -483.17475m   27.9579n  700.0000m   16.6877m  683.3123m 
 -483.07475m   28.0866n  700.0000m   16.8291m  683.1709m 
 -482.97475m   28.2161n  700.0000m   16.9705m  683.0295m 
 -482.87475m   28.3463n  700.0000m   17.1120m  682.8880m 
 -482.77475m   28.4772n  700.0000m   17.2534m  682.7466m 
 -482.67475m   28.6089n  700.0000m   17.3948m  682.6052m 
 -482.57475m   28.7414n  700.0000m   17.5362m  682.4638m 
 -482.47475m   28.8747n  700.0000m   17.6776m  682.3224m 
 -482.37475m   29.0087n  700.0000m   17.8191m  682.1809m 
 -482.27475m   29.1436n  700.0000m   17.9605m  682.0395m 
 -482.17475m   29.2792n  700.0000m   18.1019m  681.8981m 
 -482.07475m   29.4156n  700.0000m   18.2433m  681.7567m 
 -481.97475m   29.5527n  700.0000m   18.3848m  681.6153m 
 -481.87475m   29.6907n  700.0000m   18.5262m  681.4738m 
 -481.77475m   29.8295n  700.0000m   18.6676m  681.3324m 
 -481.67475m   29.9691n  700.0000m   18.8090m  681.1910m 
 -481.57475m   30.1095n  700.0000m   18.9504m  681.0496m 
 -481.47475m   30.2508n  700.0000m   19.0919m  680.9081m 
 -481.37475m   30.3928n  700.0000m   19.2333m  680.7667m 
 -481.27475m   30.5357n  700.0000m   19.3747m  680.6253m 
 -481.17475m   30.6794n  700.0000m   19.5161m  680.4839m 
 -481.07475m   30.8240n  700.0000m   19.6575m  680.3425m 
 -480.97475m   30.9694n  700.0000m   19.7990m  680.2010m 
 -480.87475m   31.1156n  700.0000m   19.9404m  680.0596m 
 -480.77475m   31.2627n  700.0000m   20.0818m  679.9182m 
 -480.67475m   31.4106n  700.0000m   20.2232m  679.7768m 
 -480.57475m   31.5594n  700.0000m   20.3646m  679.6354m 
 -480.47475m   31.7091n  700.0000m   20.5061m  679.4939m 
 -480.37475m   31.8597n  700.0000m   20.6475m  679.3525m 
 -480.27475m   32.0111n  700.0000m   20.7889m  679.2111m 
 -480.17475m   32.1634n  700.0000m   20.9303m  679.0697m 
 -480.07475m   32.3166n  700.0000m   21.0718m  678.9283m 
 -479.97475m   32.4707n  700.0000m   21.2132m  678.7868m 
 -479.87475m   32.6257n  700.0000m   21.3546m  678.6454m 
 -479.77475m   32.7816n  700.0000m   21.4960m  678.5040m 
 -479.67475m   32.9384n  700.0000m   21.6374m  678.3626m 
 -479.57475m   33.0961n  700.0000m   21.7789m  678.2211m 
 -479.47475m   33.2547n  700.0000m   21.9203m  678.0797m 
 -479.37475m   33.4142n  700.0000m   22.0617m  677.9383m 
 -479.27475m   33.5747n  700.0000m   22.2031m  677.7969m 
 -479.17475m   33.7361n  700.0000m   22.3445m  677.6555m 
 -479.07475m   33.8985n  700.0000m   22.4860m  677.5140m 
 -478.97475m   34.0618n  700.0000m   22.6274m  677.3726m 
 -478.87475m   34.2261n  700.0000m   22.7688m  677.2312m 
 -478.77475m   34.3913n  700.0000m   22.9102m  677.0898m 
 -478.67475m   34.5574n  700.0000m   23.0517m  676.9484m 
 -478.57475m   34.7246n  700.0000m   23.1931m  676.8069m 
 -478.47475m   34.8927n  700.0000m   23.3345m  676.6655m 
 -478.37475m   35.0618n  700.0000m   23.4759m  676.5241m 
 -478.27475m   35.2319n  700.0000m   23.6173m  676.3827m 
 -478.17475m   35.4029n  700.0000m   23.7588m  676.2412m 
 -478.07475m   35.5750n  700.0000m   23.9002m  676.0998m 
 -477.97475m   35.7481n  700.0000m   24.0416m  675.9584m 
 -477.87475m   35.9221n  700.0000m   24.1830m  675.8170m 
 -477.77475m   36.0972n  700.0000m   24.3244m  675.6756m 
 -477.67475m   36.2733n  700.0000m   24.4659m  675.5341m 
 -477.57475m   36.4505n  700.0000m   24.6073m  675.3927m 
 -477.47475m   36.6287n  700.0000m   24.7487m  675.2513m 
 -477.37475m   36.8079n  700.0000m   24.8901m  675.1099m 
 -477.27475m   36.9881n  700.0000m   25.0315m  674.9685m 
 -477.17475m   37.1694n  700.0000m   25.1730m  674.8270m 
 -477.07475m   37.3518n  700.0000m   25.3144m  674.6856m 
 -476.97475m   37.5352n  700.0000m   25.4558m  674.5442m 
 -476.87475m   37.7197n  700.0000m   25.5972m  674.4028m 
 -476.77475m   37.9052n  700.0000m   25.7387m  674.2614m 
 -476.67475m   38.0919n  700.0000m   25.8801m  674.1199m 
 -476.57475m   38.2796n  700.0000m   26.0215m  673.9785m 
 -476.47475m   38.4684n  700.0000m   26.1629m  673.8371m 
 -476.37475m   38.6584n  700.0000m   26.3043m  673.6957m 
 -476.27475m   38.8494n  700.0000m   26.4458m  673.5542m 
 -476.17475m   39.0416n  700.0000m   26.5872m  673.4128m 
 -476.07475m   39.2348n  700.0000m   26.7286m  673.2714m 
 -475.97475m   39.4292n  700.0000m   26.8700m  673.1300m 
 -475.87475m   39.6247n  700.0000m   27.0114m  672.9886m 
 -475.77475m   39.8214n  700.0000m   27.1529m  672.8471m 
 -475.67475m   40.0192n  700.0000m   27.2943m  672.7057m 
 -475.57475m   40.2182n  700.0000m   27.4357m  672.5643m 
 -475.47475m   40.4183n  700.0000m   27.5771m  672.4229m 
 -475.37475m   40.6196n  700.0000m   27.7186m  672.2815m 
 -475.27475m   40.8221n  700.0000m   27.8600m  672.1400m 
 -475.17475m   41.0257n  700.0000m   28.0014m  671.9986m 
 -475.07475m   41.2305n  700.0000m   28.1428m  671.8572m 
 -474.97475m   41.4366n  700.0000m   28.2842m  671.7158m 
 -474.87475m   41.6438n  700.0000m   28.4257m  671.5743m 
 -474.77475m   41.8522n  700.0000m   28.5671m  671.4329m 
 -474.67475m   42.0619n  700.0000m   28.7085m  671.2915m 
 -474.57475m   42.2727n  700.0000m   28.8499m  671.1501m 
 -474.47475m   42.4848n  700.0000m   28.9913m  671.0087m 
 -474.37475m   42.6982n  700.0000m   29.1328m  670.8672m 
 -474.27475m   42.9127n  700.0000m   29.2742m  670.7258m 
 -474.17475m   43.1286n  700.0000m   29.4156m  670.5844m 
 -474.07475m   43.3457n  700.0000m   29.5570m  670.4430m 
 -473.97475m   43.5640n  700.0000m   29.6984m  670.3016m 
 -473.87475m   43.7836n  700.0000m   29.8399m  670.1601m 
 -473.77475m   44.0045n  700.0000m   29.9813m  670.0187m 
 -473.67475m   44.2267n  700.0000m   30.1227m  669.8773m 
 -473.57475m   44.4502n  700.0000m   30.2641m  669.7359m 
 -473.47475m   44.6750n  700.0000m   30.4056m  669.5945m 
 -473.37475m   44.9011n  700.0000m   30.5470m  669.4530m 
 -473.27475m   45.1285n  700.0000m   30.6884m  669.3116m 
 -473.17475m   45.3573n  700.0000m   30.8298m  669.1702m 
 -473.07475m   45.5874n  700.0000m   30.9712m  669.0288m 
 -472.97475m   45.8188n  700.0000m   31.1127m  668.8873m 
 -472.87475m   46.0516n  700.0000m   31.2541m  668.7459m 
 -472.77475m   46.2857n  700.0000m   31.3955m  668.6045m 
 -472.67475m   46.5212n  700.0000m   31.5369m  668.4631m 
 -472.57475m   46.7581n  700.0000m   31.6783m  668.3217m 
 -472.47475m   46.9963n  700.0000m   31.8198m  668.1802m 
 -472.37475m   47.2360n  700.0000m   31.9612m  668.0388m 
 -472.27475m   47.4770n  700.0000m   32.1026m  667.8974m 
 -472.17475m   47.7194n  700.0000m   32.2440m  667.7560m 
 -472.07475m   47.9633n  700.0000m   32.3855m  667.6146m 
 -471.97475m   48.2086n  700.0000m   32.5269m  667.4731m 
 -471.87475m   48.4553n  700.0000m   32.6683m  667.3317m 
 -471.77475m   48.7034n  700.0000m   32.8097m  667.1903m 
 -471.67475m   48.9530n  700.0000m   32.9511m  667.0489m 
 -471.57475m   49.2041n  700.0000m   33.0926m  666.9075m 
 -471.47475m   49.4566n  700.0000m   33.2340m  666.7660m 
 -471.37475m   49.7106n  700.0000m   33.3754m  666.6246m 
 -471.27475m   49.9661n  700.0000m   33.5168m  666.4832m 
 -471.17475m   50.2230n  700.0000m   33.6582m  666.3418m 
 -471.07475m   50.4815n  700.0000m   33.7997m  666.2003m 
 -470.97475m   50.7414n  700.0000m   33.9411m  666.0589m 
 -470.87475m   51.0029n  700.0000m   34.0825m  665.9175m 
 -470.77475m   51.2659n  700.0000m   34.2239m  665.7761m 
 -470.67475m   51.5305n  700.0000m   34.3653m  665.6347m 
 -470.57475m   51.7966n  700.0000m   34.5068m  665.4932m 
 -470.47475m   52.0642n  700.0000m   34.6482m  665.3518m 
 -470.37475m   52.3334n  700.0000m   34.7896m  665.2104m 
 -470.27475m   52.6042n  700.0000m   34.9310m  665.0690m 
 -470.17475m   52.8766n  700.0000m   35.0725m  664.9276m 
 -470.07475m   53.1505n  700.0000m   35.2139m  664.7861m 
 -469.97475m   53.4260n  700.0000m   35.3553m  664.6447m 
 -469.87475m   53.7032n  700.0000m   35.4967m  664.5033m 
 -469.77475m   53.9820n  700.0000m   35.6381m  664.3619m 
 -469.67475m   54.2624n  700.0000m   35.7796m  664.2205m 
 -469.57475m   54.5444n  700.0000m   35.9210m  664.0790m 
 -469.47475m   54.8281n  700.0000m   36.0624m  663.9376m 
 -469.37475m   55.1134n  700.0000m   36.2038m  663.7962m 
 -469.27475m   55.4004n  700.0000m   36.3452m  663.6548m 
 -469.17475m   55.6891n  700.0000m   36.4867m  663.5133m 
 -469.07475m   55.9794n  700.0000m   36.6281m  663.3719m 
 -468.97475m   56.2715n  700.0000m   36.7695m  663.2305m 
 -468.87475m   56.5652n  700.0000m   36.9109m  663.0891m 
 -468.77475m   56.8607n  700.0000m   37.0523m  662.9477m 
 -468.67475m   57.1579n  700.0000m   37.1938m  662.8062m 
 -468.57475m   57.4568n  700.0000m   37.3352m  662.6648m 
 -468.47475m   57.7575n  700.0000m   37.4766m  662.5234m 
 -468.37475m   58.0600n  700.0000m   37.6180m  662.3820m 
 -468.27475m   58.3642n  700.0000m   37.7595m  662.2406m 
 -468.17475m   58.6701n  700.0000m   37.9009m  662.0991m 
 -468.07475m   58.9779n  700.0000m   38.0423m  661.9577m 
 -467.97475m   59.2875n  700.0000m   38.1837m  661.8163m 
 -467.87475m   59.5988n  700.0000m   38.3251m  661.6749m 
 -467.77475m   59.9120n  700.0000m   38.4666m  661.5335m 
 -467.67475m   60.2270n  700.0000m   38.6080m  661.3920m 
 -467.57475m   60.5439n  700.0000m   38.7494m  661.2506m 
 -467.47475m   60.8626n  700.0000m   38.8908m  661.1092m 
 -467.37475m   61.1832n  700.0000m   39.0322m  660.9678m 
 -467.27475m   61.5056n  700.0000m   39.1737m  660.8263m 
 -467.17475m   61.8299n  700.0000m   39.3151m  660.6849m 
 -467.07475m   62.1561n  700.0000m   39.4565m  660.5435m 
 -466.97475m   62.4843n  699.9999m   39.5979m  660.4021m 
 -466.87475m   62.8143n  699.9999m   39.7394m  660.2607m 
 -466.77475m   63.1463n  699.9999m   39.8808m  660.1192m 
 -466.67475m   63.4802n  699.9999m   40.0222m  659.9778m 
 -466.57475m   63.8160n  699.9999m   40.1636m  659.8364m 
 -466.47475m   64.1539n  699.9999m   40.3050m  659.6950m 
 -466.37475m   64.4937n  699.9999m   40.4465m  659.5536m 
 -466.27475m   64.8354n  699.9999m   40.5879m  659.4121m 
 -466.17475m   65.1792n  699.9999m   40.7293m  659.2707m 
 -466.07475m   65.5250n  699.9999m   40.8707m  659.1293m 
 -465.97475m   65.8728n  699.9999m   41.0121m  658.9879m 
 -465.87475m   66.2227n  699.9999m   41.1536m  658.8465m 
 -465.77475m   66.5745n  699.9999m   41.2950m  658.7050m 
 -465.67475m   66.9285n  699.9999m   41.4364m  658.5636m 
 -465.57475m   67.2845n  699.9999m   41.5778m  658.4222m 
 -465.47475m   67.6426n  699.9999m   41.7192m  658.2808m 
 -465.37475m   68.0028n  699.9999m   41.8607m  658.1393m 
 -465.27475m   68.3651n  699.9999m   42.0021m  657.9979m 
 -465.17475m   68.7295n  699.9999m   42.1435m  657.8565m 
 -465.07475m   69.0960n  699.9999m   42.2849m  657.7151m 
 -464.97475m   69.4647n  699.9999m   42.4264m  657.5737m 
 -464.87475m   69.8355n  699.9999m   42.5678m  657.4322m 
 -464.77475m   70.2085n  699.9999m   42.7092m  657.2908m 
 -464.67475m   70.5837n  699.9999m   42.8506m  657.1494m 
 -464.57475m   70.9611n  699.9999m   42.9920m  657.0080m 
 -464.47475m   71.3407n  699.9999m   43.1335m  656.8666m 
 -464.37475m   71.7225n  699.9999m   43.2749m  656.7251m 
 -464.27475m   72.1065n  699.9999m   43.4163m  656.5837m 
 -464.17475m   72.4928n  699.9999m   43.5577m  656.4423m 
 -464.07475m   72.8813n  699.9999m   43.6991m  656.3009m 
 -463.97475m   73.2721n  699.9999m   43.8406m  656.1595m 
 -463.87475m   73.6652n  699.9999m   43.9820m  656.0180m 
 -463.77475m   74.0606n  699.9999m   44.1234m  655.8766m 
 -463.67475m   74.4583n  699.9999m   44.2648m  655.7352m 
 -463.57475m   74.8584n  699.9999m   44.4062m  655.5938m 
