 ****** HSPICE -- Q-2020.03-SP2-2 linux64 (Nov  1 2020) ******                  
  Copyright (c) 1986 - 2025 by Synopsys, Inc. All Rights Reserved.              
  This software and the associated documentation are proprietary
  to Synopsys, Inc. This software may only be used in accordance
  with the terms and conditions of a written license agreement with
  Synopsys, Inc. All other use, reproduction, or distribution of
  this software is strictly prohibited.
  Input File: SRAM_RSNM_FF.sp                                                   
  Command line options: /RAID2/cad/synopsys/hspice/2020.03-sp2-2/hspice/linux64/hspice -i SRAM_RSNM_FF.sp -o SRAM_RSNM_FF.lis
  Start time: Sun Mar 23 14:00:22 2025
 lic:  
 lic: FLEXlm: SDK_12.6 
 lic: USER:   es25MCS042           HOSTNAME: ee28 
 lic: HOSTID: "d85ed3efc19a"       PID:      144206 
 lic: Using FLEXlm license file: 
 lic: 26585@lshc 
 lic: Checkout 1 hspice 
 lic: License/Maintenance for hspice will expire on 14-may-2025/2024.09 
 lic: 184(in_use)/1100(total) FLOATING license(s) on SERVER 26585@lshc 
 lic:   
  
      
             
 Warning:'Floating bulk' occurs 1 times
 Summary of floating bulk:
 -----------------------
 |Node      |Device    |
 |----------+----------|
 |x         |mpr       |
 -----------------------
              
 *****************************************************************
 ******  option summary
 ******
 runlvl  = 3         bypass  = 2.0000    
 ******
 .title noise margin in read operation

 ****** dc transfer curves tnom=  25.000 temp=  25.000 ******
x

 volt         voltage    voltage    voltage    voltage   
             q          qb         gl         gr         
 -494.97475m  109.8281m  700.0000m  -16.9990n  809.8281m 
 -494.87475m  109.8379m  700.0000m  141.4043u  809.6965m 
 -494.77475m  109.8477m  700.0000m  282.8256u  809.5648m 
 -494.67475m  109.8575m  700.0000m  424.2468u  809.4332m 
 -494.57475m  109.8673m  700.0000m  565.6681u  809.3016m 
 -494.47475m  109.8771m  700.0000m  707.0894u  809.1700m 
 -494.37475m  109.8869m  700.0000m  848.5106u  809.0384m 
 -494.27475m  109.8968m  700.0000m  989.9319u  808.9068m 
 -494.17475m  109.9066m  700.0000m    1.1314m  808.7753m 
 -494.07475m  109.9165m  700.0000m    1.2728m  808.6437m 
 -493.97475m  109.9263m  700.0000m    1.4142m  808.5121m 
 -493.87475m  109.9362m  700.0000m    1.5556m  808.3806m 
 -493.77475m  109.9461m  700.0000m    1.6970m  808.2490m 
 -493.67475m  109.9560m  700.0000m    1.8385m  808.1175m 
 -493.57475m  109.9659m  700.0000m    1.9799m  807.9860m 
 -493.47475m  109.9757m  700.0000m    2.1213m  807.8544m 
 -493.37475m  109.9857m  700.0000m    2.2627m  807.7229m 
 -493.27475m  109.9956m  700.0000m    2.4041m  807.5914m 
 -493.17475m  110.0055m  700.0000m    2.5456m  807.4599m 
 -493.07475m  110.0154m  700.0000m    2.6870m  807.3284m 
 -492.97475m  110.0253m  700.0000m    2.8284m  807.1969m 
 -492.87475m  110.0353m  700.0000m    2.9698m  807.0654m 
 -492.77475m  110.0452m  700.0000m    3.1113m  806.9340m 
 -492.67475m  110.0552m  700.0000m    3.2527m  806.8025m 
 -492.57475m  110.0652m  700.0000m    3.3941m  806.6710m 
 -492.47475m  110.0751m  700.0000m    3.5355m  806.5396m 
 -492.37475m  110.0851m  700.0000m    3.6769m  806.4081m 
 -492.27475m  110.0951m  700.0000m    3.8184m  806.2767m 
 -492.17475m  110.1051m  700.0000m    3.9598m  806.1453m 
 -492.07475m  110.1151m  700.0000m    4.1012m  806.0139m 
 -491.97475m  110.1251m  700.0000m    4.2426m  805.8825m 
 -491.87475m  110.1351m  700.0000m    4.3840m  805.7511m 
 -491.77475m  110.1451m  700.0000m    4.5255m  805.6197m 
 -491.67475m  110.1552m  700.0000m    4.6669m  805.4883m 
 -491.57475m  110.1652m  700.0000m    4.8083m  805.3569m 
 -491.47475m  110.1753m  700.0000m    4.9497m  805.2255m 
 -491.37475m  110.1853m  700.0000m    5.0911m  805.0941m 
 -491.27475m  110.1954m  700.0000m    5.2326m  804.9628m 
 -491.17475m  110.2054m  700.0000m    5.3740m  804.8314m 
 -491.07475m  110.2155m  700.0000m    5.5154m  804.7001m 
 -490.97475m  110.2256m  700.0000m    5.6568m  804.5687m 
 -490.87475m  110.2357m  700.0000m    5.7983m  804.4374m 
 -490.77475m  110.2458m  700.0000m    5.9397m  804.3061m 
 -490.67475m  110.2559m  700.0000m    6.0811m  804.1748m 
 -490.57475m  110.2660m  700.0000m    6.2225m  804.0435m 
 -490.47475m  110.2761m  700.0000m    6.3639m  803.9122m 
 -490.37475m  110.2863m  700.0000m    6.5054m  803.7809m 
 -490.27475m  110.2964m  700.0000m    6.6468m  803.6496m 
 -490.17475m  110.3066m  700.0000m    6.7882m  803.5183m 
 -490.07475m  110.3167m  700.0000m    6.9296m  803.3871m 
 -489.97475m  110.3269m  700.0000m    7.0710m  803.2558m 
 -489.87475m  110.3370m  700.0000m    7.2125m  803.1245m 
 -489.77475m  110.3472m  700.0000m    7.3539m  802.9933m 
 -489.67475m  110.3574m  700.0000m    7.4953m  802.8621m 
 -489.57475m  110.3676m  700.0000m    7.6367m  802.7308m 
 -489.47475m  110.3778m  700.0000m    7.7782m  802.5996m 
 -489.37475m  110.3880m  700.0000m    7.9196m  802.4684m 
 -489.27475m  110.3982m  700.0000m    8.0610m  802.3372m 
 -489.17475m  110.4084m  700.0000m    8.2024m  802.2060m 
 -489.07475m  110.4187m  700.0000m    8.3438m  802.0748m 
 -488.97475m  110.4289m  700.0000m    8.4853m  801.9436m 
 -488.87475m  110.4392m  700.0000m    8.6267m  801.8124m 
 -488.77475m  110.4494m  700.0000m    8.7681m  801.6813m 
 -488.67475m  110.4597m  700.0000m    8.9095m  801.5501m 
 -488.57475m  110.4699m  700.0000m    9.0509m  801.4190m 
 -488.47475m  110.4802m  700.0000m    9.1924m  801.2878m 
 -488.37475m  110.4905m  700.0000m    9.3338m  801.1567m 
 -488.27475m  110.5008m  700.0000m    9.4752m  801.0256m 
 -488.17475m  110.5111m  700.0000m    9.6166m  800.8944m 
 -488.07475m  110.5214m  700.0000m    9.7580m  800.7633m 
 -487.97475m  110.5317m  700.0000m    9.8995m  800.6322m 
 -487.87475m  110.5420m  700.0000m   10.0409m  800.5011m 
 -487.77475m  110.5524m  700.0000m   10.1823m  800.3700m 
 -487.67475m  110.5627m  700.0000m   10.3237m  800.2390m 
 -487.57475m  110.5731m  700.0000m   10.4652m  800.1079m 
 -487.47475m  110.5834m  700.0000m   10.6066m  799.9768m 
 -487.37475m  110.5938m  700.0000m   10.7480m  799.8458m 
 -487.27475m  110.6042m  700.0000m   10.8894m  799.7147m 
 -487.17475m  110.6145m  700.0000m   11.0308m  799.5837m 
 -487.07475m  110.6249m  700.0000m   11.1723m  799.4526m 
 -486.97475m  110.6353m  700.0000m   11.3137m  799.3216m 
 -486.87475m  110.6457m  700.0000m   11.4551m  799.1906m 
 -486.77475m  110.6561m  700.0000m   11.5965m  799.0596m 
 -486.67475m  110.6665m  700.0000m   11.7379m  798.9286m 
 -486.57475m  110.6770m  700.0000m   11.8794m  798.7976m 
 -486.47475m  110.6874m  700.0000m   12.0208m  798.6666m 
 -486.37475m  110.6978m  700.0000m   12.1622m  798.5356m 
 -486.27475m  110.7083m  700.0000m   12.3036m  798.4046m 
 -486.17475m  110.7188m  700.0000m   12.4451m  798.2737m 
 -486.07475m  110.7292m  700.0000m   12.5865m  798.1427m 
 -485.97475m  110.7397m  700.0000m   12.7279m  798.0118m 
 -485.87475m  110.7502m  700.0000m   12.8693m  797.8808m 
 -485.77475m  110.7607m  700.0000m   13.0107m  797.7499m 
 -485.67475m  110.7712m  700.0000m   13.1522m  797.6190m 
 -485.57475m  110.7817m  700.0000m   13.2936m  797.4881m 
 -485.47475m  110.7922m  700.0000m   13.4350m  797.3572m 
 -485.37475m  110.8027m  700.0000m   13.5764m  797.2263m 
 -485.27475m  110.8132m  700.0000m   13.7178m  797.0954m 
 -485.17475m  110.8238m  700.0000m   13.8593m  796.9645m 
 -485.07475m  110.8343m  700.0000m   14.0007m  796.8336m 
 -484.97475m  110.8449m  700.0000m   14.1421m  796.7027m 
 -484.87475m  110.8554m  700.0000m   14.2835m  796.5719m 
 -484.77475m  110.8660m  700.0000m   14.4250m  796.4410m 
 -484.67475m  110.8766m  700.0000m   14.5664m  796.3102m 
 -484.57475m  110.8872m  700.0000m   14.7078m  796.1794m 
 -484.47475m  110.8978m  700.0000m   14.8492m  796.0485m 
 -484.37475m  110.9084m  700.0000m   14.9906m  795.9177m 
 -484.27475m  110.9190m  700.0000m   15.1321m  795.7869m 
 -484.17475m  110.9296m  700.0000m   15.2735m  795.6561m 
 -484.07475m  110.9402m  700.0000m   15.4149m  795.5253m 
 -483.97475m  110.9509m  700.0000m   15.5563m  795.3945m 
 -483.87475m  110.9615m  700.0000m   15.6977m  795.2637m 
 -483.77475m  110.9722m  700.0000m   15.8392m  795.1330m 
 -483.67475m  110.9828m  700.0000m   15.9806m  795.0022m 
 -483.57475m  110.9935m  700.0000m   16.1220m  794.8715m 
 -483.47475m  111.0042m  700.0000m   16.2634m  794.7407m 
 -483.37475m  111.0149m  700.0000m   16.4048m  794.6100m 
 -483.27475m  111.0255m  700.0000m   16.5463m  794.4792m 
 -483.17475m  111.0362m  700.0000m   16.6877m  794.3485m 
 -483.07475m  111.0470m  700.0000m   16.8291m  794.2178m 
 -482.97475m  111.0577m  700.0000m   16.9705m  794.0871m 
 -482.87475m  111.0684m  700.0000m   17.1120m  793.9564m 
 -482.77475m  111.0791m  700.0000m   17.2534m  793.8257m 
 -482.67475m  111.0899m  700.0000m   17.3948m  793.6950m 
 -482.57475m  111.1006m  700.0000m   17.5362m  793.5644m 
 -482.47475m  111.1114m  700.0000m   17.6776m  793.4337m 
 -482.37475m  111.1221m  700.0000m   17.8191m  793.3031m 
 -482.27475m  111.1329m  700.0000m   17.9605m  793.1724m 
 -482.17475m  111.1437m  700.0000m   18.1019m  793.0418m 
 -482.07475m  111.1545m  700.0000m   18.2433m  792.9111m 
 -481.97475m  111.1653m  700.0000m   18.3847m  792.7805m 
 -481.87475m  111.1761m  700.0000m   18.5262m  792.6499m 
 -481.77475m  111.1869m  700.0000m   18.6676m  792.5193m 
 -481.67475m  111.1977m  700.0000m   18.8090m  792.3887m 
 -481.57475m  111.2086m  700.0000m   18.9504m  792.2581m 
 -481.47475m  111.2194m  700.0000m   19.0918m  792.1275m 
 -481.37475m  111.2303m  700.0000m   19.2333m  791.9970m 
 -481.27475m  111.2411m  700.0000m   19.3747m  791.8664m 
 -481.17475m  111.2520m  700.0000m   19.5161m  791.7358m 
 -481.07475m  111.2629m  700.0000m   19.6575m  791.6053m 
 -480.97475m  111.2737m  700.0000m   19.7990m  791.4747m 
 -480.87475m  111.2846m  700.0000m   19.9404m  791.3442m 
 -480.77475m  111.2955m  700.0000m   20.0818m  791.2137m 
 -480.67475m  111.3064m  700.0000m   20.2232m  791.0832m 
 -480.57475m  111.3173m  700.0000m   20.3646m  790.9527m 
 -480.47475m  111.3283m  700.0000m   20.5061m  790.8222m 
 -480.37475m  111.3392m  700.0000m   20.6475m  790.6917m 
 -480.27475m  111.3501m  700.0000m   20.7889m  790.5612m 
 -480.17475m  111.3611m  700.0000m   20.9303m  790.4307m 
 -480.07475m  111.3720m  700.0000m   21.0717m  790.3003m 
 -479.97475m  111.3830m  700.0000m   21.2132m  790.1698m 
 -479.87475m  111.3940m  700.0000m   21.3546m  790.0394m 
 -479.77475m  111.4050m  700.0000m   21.4960m  789.9089m 
 -479.67475m  111.4160m  700.0000m   21.6374m  789.7785m 
 -479.57475m  111.4270m  700.0000m   21.7789m  789.6481m 
 -479.47475m  111.4380m  700.0000m   21.9203m  789.5177m 
 -479.37475m  111.4490m  700.0000m   22.0617m  789.3873m 
 -479.27475m  111.4600m  700.0000m   22.2031m  789.2569m 
 -479.17475m  111.4710m  700.0000m   22.3445m  789.1265m 
 -479.07475m  111.4821m  700.0000m   22.4860m  788.9961m 
 -478.97475m  111.4931m  700.0000m   22.6274m  788.8657m 
 -478.87475m  111.5042m  700.0000m   22.7688m  788.7354m 
 -478.77475m  111.5153m  700.0000m   22.9102m  788.6050m 
 -478.67475m  111.5263m  700.0000m   23.0516m  788.4747m 
 -478.57475m  111.5374m  700.0000m   23.1931m  788.3443m 
 -478.47475m  111.5485m  700.0000m   23.3345m  788.2140m 
 -478.37475m  111.5596m  700.0000m   23.4759m  788.0837m 
 -478.27475m  111.5707m  700.0000m   23.6173m  787.9534m 
 -478.17475m  111.5818m  700.0000m   23.7587m  787.8231m 
 -478.07475m  111.5930m  700.0000m   23.9002m  787.6928m 
 -477.97475m  111.6041m  700.0000m   24.0416m  787.5625m 
 -477.87475m  111.6153m  700.0000m   24.1830m  787.4322m 
 -477.77475m  111.6264m  700.0000m   24.3244m  787.3019m 
 -477.67475m  111.6376m  700.0000m   24.4659m  787.1717m 
 -477.57475m  111.6487m  700.0000m   24.6073m  787.0414m 
 -477.47475m  111.6599m  700.0000m   24.7487m  786.9112m 
 -477.37475m  111.6711m  700.0000m   24.8901m  786.7809m 
 -477.27475m  111.6823m  700.0000m   25.0315m  786.6507m 
 -477.17475m  111.6935m  700.0000m   25.1730m  786.5205m 
 -477.07475m  111.7047m  700.0000m   25.3144m  786.3903m 
 -476.97475m  111.7159m  700.0000m   25.4558m  786.2601m 
 -476.87475m  111.7272m  700.0000m   25.5972m  786.1299m 
 -476.77475m  111.7384m  700.0000m   25.7386m  785.9997m 
 -476.67475m  111.7497m  700.0000m   25.8801m  785.8696m 
 -476.57475m  111.7609m  700.0000m   26.0215m  785.7394m 
 -476.47475m  111.7722m  700.0000m   26.1629m  785.6092m 
 -476.37475m  111.7835m  700.0000m   26.3043m  785.4791m 
 -476.27475m  111.7947m  700.0000m   26.4457m  785.3489m 
 -476.17475m  111.8060m  700.0000m   26.5872m  785.2188m 
 -476.07475m  111.8173m  700.0000m   26.7286m  785.0887m 
 -475.97475m  111.8286m  700.0000m   26.8700m  784.9586m 
 -475.87475m  111.8400m  700.0000m   27.0114m  784.8285m 
 -475.77475m  111.8513m  700.0000m   27.1529m  784.6984m 
 -475.67475m  111.8626m  700.0000m   27.2943m  784.5683m 
 -475.57475m  111.8740m  700.0000m   27.4357m  784.4382m 
 -475.47475m  111.8853m  700.0000m   27.5771m  784.3082m 
 -475.37475m  111.8967m  700.0000m   27.7185m  784.1781m 
 -475.27475m  111.9080m  700.0000m   27.8600m  784.0480m 
 -475.17475m  111.9194m  700.0000m   28.0014m  783.9180m 
 -475.07475m  111.9308m  700.0000m   28.1428m  783.7880m 
 -474.97475m  111.9422m  700.0000m   28.2842m  783.6579m 
 -474.87475m  111.9536m  700.0000m   28.4256m  783.5279m 
 -474.77475m  111.9650m  700.0000m   28.5671m  783.3979m 
 -474.67475m  111.9765m  700.0000m   28.7085m  783.2679m 
 -474.57475m  111.9879m  700.0000m   28.8499m  783.1379m 
 -474.47475m  111.9993m  700.0000m   28.9913m  783.0079m 
 -474.37475m  112.0108m  700.0000m   29.1328m  782.8780m 
 -474.27475m  112.0222m  700.0000m   29.2742m  782.7480m 
 -474.17475m  112.0337m  700.0000m   29.4156m  782.6181m 
 -474.07475m  112.0452m  700.0000m   29.5570m  782.4881m 
 -473.97475m  112.0567m  700.0000m   29.6984m  782.3582m 
 -473.87475m  112.0682m  700.0000m   29.8399m  782.2283m 
 -473.77475m  112.0797m  699.9999m   29.9813m  782.0983m 
 -473.67475m  112.0912m  699.9999m   30.1227m  781.9684m 
 -473.57475m  112.1027m  699.9999m   30.2641m  781.8385m 
 -473.47475m  112.1142m  699.9999m   30.4055m  781.7086m 
 -473.37475m  112.1258m  699.9999m   30.5470m  781.5788m 
 -473.27475m  112.1373m  699.9999m   30.6884m  781.4489m 
 -473.17475m  112.1489m  699.9999m   30.8298m  781.3190m 
 -473.07475m  112.1604m  699.9999m   30.9712m  781.1892m 
 -472.97475m  112.1720m  699.9999m   31.1126m  781.0593m 
 -472.87475m  112.1836m  699.9999m   31.2541m  780.9295m 
 -472.77475m  112.1952m  699.9999m   31.3955m  780.7996m 
 -472.67475m  112.2068m  699.9999m   31.5369m  780.6698m 
 -472.57475m  112.2184m  699.9999m   31.6783m  780.5400m 
 -472.47475m  112.2300m  699.9999m   31.8198m  780.4102m 
 -472.37475m  112.2416m  699.9999m   31.9612m  780.2804m 
 -472.27475m  112.2533m  699.9999m   32.1026m  780.1506m 
 -472.17475m  112.2649m  699.9999m   32.2440m  780.0209m 
 -472.07475m  112.2766m  699.9999m   32.3854m  779.8911m 
 -471.97475m  112.2883m  699.9999m   32.5269m  779.7613m 
 -471.87475m  112.2999m  699.9999m   32.6683m  779.6316m 
 -471.77475m  112.3116m  699.9999m   32.8097m  779.5019m 
 -471.67475m  112.3233m  699.9999m   32.9511m  779.3721m 
 -471.57475m  112.3350m  699.9999m   33.0925m  779.2424m 
 -471.47475m  112.3467m  699.9999m   33.2340m  779.1127m 
 -471.37475m  112.3584m  699.9999m   33.3754m  778.9830m 
 -471.27475m  112.3702m  699.9999m   33.5168m  778.8533m 
 -471.17475m  112.3819m  699.9999m   33.6582m  778.7236m 
 -471.07475m  112.3936m  699.9999m   33.7996m  778.5939m 
 -470.97475m  112.4054m  699.9999m   33.9411m  778.4643m 
 -470.87475m  112.4172m  699.9999m   34.0825m  778.3346m 
 -470.77475m  112.4289m  699.9999m   34.2239m  778.2050m 
 -470.67475m  112.4407m  699.9999m   34.3653m  778.0753m 
 -470.57475m  112.4525m  699.9999m   34.5068m  777.9457m 
 -470.47475m  112.4643m  699.9999m   34.6482m  777.8161m 
 -470.37475m  112.4761m  699.9999m   34.7896m  777.6865m 
 -470.27475m  112.4879m  699.9999m   34.9310m  777.5569m 
 -470.17475m  112.4998m  699.9999m   35.0724m  777.4273m 
 -470.07475m  112.5116m  699.9999m   35.2139m  777.2977m 
 -469.97475m  112.5235m  699.9999m   35.3553m  777.1681m 
 -469.87475m  112.5353m  699.9999m   35.4967m  777.0386m 
 -469.77475m  112.5472m  699.9999m   35.6381m  776.9090m 
 -469.67475m  112.5591m  699.9999m   35.7795m  776.7795m 
 -469.57475m  112.5709m  699.9999m   35.9210m  776.6499m 
 -469.47475m  112.5828m  699.9999m   36.0624m  776.5204m 
 -469.37475m  112.5947m  699.9999m   36.2038m  776.3909m 
 -469.27475m  112.6067m  699.9999m   36.3452m  776.2614m 
 -469.17475m  112.6186m  699.9999m   36.4866m  776.1319m 
 -469.07475m  112.6305m  699.9999m   36.6281m  776.0024m 
 -468.97475m  112.6425m  699.9999m   36.7695m  775.8729m 
 -468.87475m  112.6544m  699.9999m   36.9109m  775.7434m 
 -468.77475m  112.6664m  699.9999m   37.0523m  775.6140m 
 -468.67475m  112.6783m  699.9999m   37.1938m  775.4845m 
 -468.57475m  112.6903m  699.9999m   37.3352m  775.3551m 
 -468.47475m  112.7023m  699.9999m   37.4766m  775.2256m 
 -468.37475m  112.7143m  699.9999m   37.6180m  775.0962m 
 -468.27475m  112.7263m  699.9999m   37.7594m  774.9668m 
 -468.17475m  112.7383m  699.9999m   37.9009m  774.8374m 
 -468.07475m  112.7503m  699.9999m   38.0423m  774.7080m 
 -467.97475m  112.7624m  699.9999m   38.1837m  774.5786m 
 -467.87475m  112.7744m  699.9999m   38.3251m  774.4492m 
 -467.77475m  112.7865m  699.9999m   38.4665m  774.3199m 
 -467.67475m  112.7985m  699.9999m   38.6080m  774.1905m 
 -467.57475m  112.8106m  699.9999m   38.7494m  774.0611m 
 -467.47475m  112.8227m  699.9999m   38.8908m  773.9318m 
 -467.37475m  112.8348m  699.9999m   39.0322m  773.8025m 
 -467.27475m  112.8469m  699.9999m   39.1736m  773.6732m 
 -467.17475m  112.8590m  699.9999m   39.3151m  773.5438m 
 -467.07475m  112.8711m  699.9999m   39.4565m  773.4145m 
 -466.97475m  112.8832m  699.9999m   39.5979m  773.2853m 
 -466.87475m  112.8954m  699.9999m   39.7393m  773.1560m 
 -466.77475m  112.9075m  699.9999m   39.8807m  773.0267m 
 -466.67475m  112.9197m  699.9999m   40.0222m  772.8974m 
 -466.57475m  112.9318m  699.9999m   40.1636m  772.7682m 
 -466.47475m  112.9440m  699.9999m   40.3050m  772.6389m 
 -466.37475m  112.9562m  699.9999m   40.4464m  772.5097m 
 -466.27475m  112.9684m  699.9999m   40.5879m  772.3805m 
 -466.17475m  112.9806m  699.9999m   40.7293m  772.2513m 
 -466.07475m  112.9928m  699.9999m   40.8707m  772.1220m 
 -465.97475m  113.0050m  699.9999m   41.0121m  771.9928m 
 -465.87475m  113.0173m  699.9999m   41.1535m  771.8637m 
 -465.77475m  113.0295m  699.9999m   41.2950m  771.7345m 
 -465.67475m  113.0418m  699.9999m   41.4364m  771.6053m 
 -465.57475m  113.0540m  699.9999m   41.5778m  771.4762m 
 -465.47475m  113.0663m  699.9999m   41.7192m  771.3470m 
 -465.37475m  113.0786m  699.9999m   41.8606m  771.2179m 
 -465.27475m  113.0909m  699.9999m   42.0021m  771.0887m 
 -465.17475m  113.1032m  699.9999m   42.1435m  770.9596m 
 -465.07475m  113.1155m  699.9999m   42.2849m  770.8305m 
 -464.97475m  113.1278m  699.9999m   42.4263m  770.7014m 
 -464.87475m  113.1401m  699.9999m   42.5677m  770.5723m 
 -464.77475m  113.1525m  699.9999m   42.7092m  770.4432m 
 -464.67475m  113.1648m  699.9999m   42.8506m  770.3142m 
 -464.57475m  113.1772m  699.9999m   42.9920m  770.1851m 
 -464.47475m  113.1896m  699.9999m   43.1334m  770.0560m 
 -464.37475m  113.2019m  699.9999m   43.2749m  769.9270m 
 -464.27475m  113.2143m  699.9999m   43.4163m  769.7980m 
 -464.17475m  113.2267m  699.9999m   43.5577m  769.6689m 
 -464.07475m  113.2391m  699.9999m   43.6991m  769.5399m 
 -463.97475m  113.2515m  699.9999m   43.8405m  769.4109m 
 -463.87475m  113.2640m  699.9999m   43.9820m  769.2819m 
 -463.77475m  113.2764m  699.9999m   44.1234m  769.1529m 
 -463.67475m  113.2889m  699.9999m   44.2648m  769.0240m 
 -463.57475m  113.3013m  699.9999m   44.4062m  768.8950m 
