 ****** HSPICE -- Q-2020.03-SP2-2 linux64 (Nov  1 2020) ******                  
  Copyright (c) 1986 - 2025 by Synopsys, Inc. All Rights Reserved.              
  This software and the associated documentation are proprietary
  to Synopsys, Inc. This software may only be used in accordance
  with the terms and conditions of a written license agreement with
  Synopsys, Inc. All other use, reproduction, or distribution of
  this software is strictly prohibited.
  Input File: SRAM_SNM_TT.sp                                                    
  Command line options: /RAID2/cad/synopsys/hspice/2020.03-sp2-2/hspice/linux64/hspice -i SRAM_SNM_TT.sp -o SRAM_SNM_TT.lis
  Start time: Sun Mar 23 13:40:18 2025
 lic:  
 lic: FLEXlm: SDK_12.6 
 lic: USER:   es25MCS042           HOSTNAME: ee28 
 lic: HOSTID: "d85ed3efc19a"       PID:      127278 
 lic: Using FLEXlm license file: 
 lic: 26585@lshc 
 lic: Checkout 1 hspice 
 lic: License/Maintenance for hspice will expire on 14-may-2025/2024.09 
 lic: 180(in_use)/1100(total) FLOATING license(s) on SERVER 26585@lshc 
 lic:   
  
      
             
 Warning:'Floating bulk' occurs 1 times
 Summary of floating bulk:
 -----------------------
 |Node      |Device    |
 |----------+----------|
 |x         |mpr       |
 -----------------------
              
 *****************************************************************
 ******  option summary
 ******
 runlvl  = 3         bypass  = 2.0000    
 ******
 .title noise margin in hold operation

 ****** dc transfer curves tnom=  25.000 temp=  25.000 ******
x

 volt         voltage    voltage    voltage    voltage   
             q          qb         gl         gr         
 -494.97475m   19.0303n  700.0000m  -17.2580n  700.0000m 
 -494.87475m   19.1017n  700.0000m  141.4040u  699.8586m 
 -494.77475m   19.1736n  700.0000m  282.8253u  699.7172m 
 -494.67475m   19.2458n  700.0000m  424.2466u  699.5758m 
 -494.57475m   19.3185n  700.0000m  565.6679u  699.4343m 
 -494.47475m   19.3916n  700.0000m  707.0892u  699.2929m 
 -494.37475m   19.4652n  700.0000m  848.5105u  699.1515m 
 -494.27475m   19.5391n  700.0000m  989.9317u  699.0101m 
 -494.17475m   19.6135n  700.0000m    1.1314m  698.8686m 
 -494.07475m   19.6883n  700.0000m    1.2728m  698.7272m 
 -493.97475m   19.7635n  700.0000m    1.4142m  698.5858m 
 -493.87475m   19.8392n  700.0000m    1.5556m  698.4444m 
 -493.77475m   19.9153n  700.0000m    1.6970m  698.3030m 
 -493.67475m   19.9919n  700.0000m    1.8385m  698.1615m 
 -493.57475m   20.0689n  700.0000m    1.9799m  698.0201m 
 -493.47475m   20.1463n  700.0000m    2.1213m  697.8787m 
 -493.37475m   20.2242n  700.0000m    2.2627m  697.7373m 
 -493.27475m   20.3025n  700.0000m    2.4041m  697.5959m 
 -493.17475m   20.3813n  700.0000m    2.5456m  697.4544m 
 -493.07475m   20.4606n  700.0000m    2.6870m  697.3130m 
 -492.97475m   20.5403n  700.0000m    2.8284m  697.1716m 
 -492.87475m   20.6204n  700.0000m    2.9698m  697.0302m 
 -492.77475m   20.7010n  700.0000m    3.1113m  696.8888m 
 -492.67475m   20.7821n  700.0000m    3.2527m  696.7473m 
 -492.57475m   20.8637n  700.0000m    3.3941m  696.6059m 
 -492.47475m   20.9457n  700.0000m    3.5355m  696.4645m 
 -492.37475m   21.0282n  700.0000m    3.6769m  696.3231m 
 -492.27475m   21.1112n  700.0000m    3.8184m  696.1816m 
 -492.17475m   21.1947n  700.0000m    3.9598m  696.0402m 
 -492.07475m   21.2786n  700.0000m    4.1012m  695.8988m 
 -491.97475m   21.3631n  700.0000m    4.2426m  695.7574m 
 -491.87475m   21.4480n  700.0000m    4.3840m  695.6160m 
 -491.77475m   21.5334n  700.0000m    4.5255m  695.4745m 
 -491.67475m   21.6193n  700.0000m    4.6669m  695.3331m 
 -491.57475m   21.7057n  700.0000m    4.8083m  695.1917m 
 -491.47475m   21.7926n  700.0000m    4.9497m  695.0503m 
 -491.37475m   21.8800n  700.0000m    5.0911m  694.9089m 
 -491.27475m   21.9679n  700.0000m    5.2326m  694.7674m 
 -491.17475m   22.0563n  700.0000m    5.3740m  694.6260m 
 -491.07475m   22.1453n  700.0000m    5.5154m  694.4846m 
 -490.97475m   22.2347n  700.0000m    5.6568m  694.3432m 
 -490.87475m   22.3247n  700.0000m    5.7983m  694.2017m 
 -490.77475m   22.4151n  700.0000m    5.9397m  694.0603m 
 -490.67475m   22.5061n  700.0000m    6.0811m  693.9189m 
 -490.57475m   22.5977n  700.0000m    6.2225m  693.7775m 
 -490.47475m   22.6897n  700.0000m    6.3639m  693.6361m 
 -490.37475m   22.7823n  700.0000m    6.5054m  693.4946m 
 -490.27475m   22.8754n  700.0000m    6.6468m  693.3532m 
 -490.17475m   22.9691n  700.0000m    6.7882m  693.2118m 
 -490.07475m   23.0633n  700.0000m    6.9296m  693.0704m 
 -489.97475m   23.1580n  700.0000m    7.0710m  692.9290m 
 -489.87475m   23.2533n  700.0000m    7.2125m  692.7875m 
 -489.77475m   23.3492n  700.0000m    7.3539m  692.6461m 
 -489.67475m   23.4456n  700.0000m    7.4953m  692.5047m 
 -489.57475m   23.5425n  700.0000m    7.6367m  692.3633m 
 -489.47475m   23.6400n  700.0000m    7.7782m  692.2218m 
 -489.37475m   23.7381n  700.0000m    7.9196m  692.0804m 
 -489.27475m   23.8367n  700.0000m    8.0610m  691.9390m 
 -489.17475m   23.9360n  700.0000m    8.2024m  691.7976m 
 -489.07475m   24.0357n  700.0000m    8.3438m  691.6562m 
 -488.97475m   24.1361n  700.0000m    8.4853m  691.5147m 
 -488.87475m   24.2370n  700.0000m    8.6267m  691.3733m 
 -488.77475m   24.3386n  700.0000m    8.7681m  691.2319m 
 -488.67475m   24.4407n  700.0000m    8.9095m  691.0905m 
 -488.57475m   24.5434n  700.0000m    9.0509m  690.9491m 
 -488.47475m   24.6467n  700.0000m    9.1924m  690.8076m 
 -488.37475m   24.7506n  700.0000m    9.3338m  690.6662m 
 -488.27475m   24.8551n  700.0000m    9.4752m  690.5248m 
 -488.17475m   24.9601n  700.0000m    9.6166m  690.3834m 
 -488.07475m   25.0658n  700.0000m    9.7581m  690.2420m 
 -487.97475m   25.1722n  700.0000m    9.8995m  690.1005m 
 -487.87475m   25.2791n  700.0000m   10.0409m  689.9591m 
 -487.77475m   25.3866n  700.0000m   10.1823m  689.8177m 
 -487.67475m   25.4948n  700.0000m   10.3237m  689.6763m 
 -487.57475m   25.6036n  700.0000m   10.4652m  689.5348m 
 -487.47475m   25.7130n  700.0000m   10.6066m  689.3934m 
 -487.37475m   25.8230n  700.0000m   10.7480m  689.2520m 
 -487.27475m   25.9337n  700.0000m   10.8894m  689.1106m 
 -487.17475m   26.0451n  700.0000m   11.0308m  688.9692m 
 -487.07475m   26.1570n  700.0000m   11.1723m  688.8277m 
 -486.97475m   26.2696n  700.0000m   11.3137m  688.6863m 
 -486.87475m   26.3829n  700.0000m   11.4551m  688.5449m 
 -486.77475m   26.4968n  700.0000m   11.5965m  688.4035m 
 -486.67475m   26.6114n  700.0000m   11.7379m  688.2621m 
 -486.57475m   26.7266n  700.0000m   11.8794m  688.1206m 
 -486.47475m   26.8425n  700.0000m   12.0208m  687.9792m 
 -486.37475m   26.9591n  700.0000m   12.1622m  687.8378m 
 -486.27475m   27.0764n  700.0000m   12.3036m  687.6964m 
 -486.17475m   27.1943n  700.0000m   12.4451m  687.5549m 
 -486.07475m   27.3129n  700.0000m   12.5865m  687.4135m 
 -485.97475m   27.4322n  700.0000m   12.7279m  687.2721m 
 -485.87475m   27.5522n  700.0000m   12.8693m  687.1307m 
 -485.77475m   27.6728n  700.0000m   13.0107m  686.9893m 
 -485.67475m   27.7942n  700.0000m   13.1522m  686.8478m 
 -485.57475m   27.9163n  700.0000m   13.2936m  686.7064m 
 -485.47475m   28.0390n  700.0000m   13.4350m  686.5650m 
 -485.37475m   28.1625n  700.0000m   13.5764m  686.4236m 
 -485.27475m   28.2867n  700.0000m   13.7178m  686.2822m 
 -485.17475m   28.4116n  700.0000m   13.8593m  686.1407m 
 -485.07475m   28.5373n  700.0000m   14.0007m  685.9993m 
 -484.97475m   28.6636n  700.0000m   14.1421m  685.8579m 
 -484.87475m   28.7907n  700.0000m   14.2835m  685.7165m 
 -484.77475m   28.9185n  700.0000m   14.4250m  685.5751m 
 -484.67475m   29.0471n  700.0000m   14.5664m  685.4336m 
 -484.57475m   29.1764n  700.0000m   14.7078m  685.2922m 
 -484.47475m   29.3065n  700.0000m   14.8492m  685.1508m 
 -484.37475m   29.4373n  700.0000m   14.9906m  685.0094m 
 -484.27475m   29.5688n  700.0000m   15.1321m  684.8679m 
 -484.17475m   29.7011n  700.0000m   15.2735m  684.7265m 
 -484.07475m   29.8342n  700.0000m   15.4149m  684.5851m 
 -483.97475m   29.9681n  700.0000m   15.5563m  684.4437m 
 -483.87475m   30.1027n  700.0000m   15.6977m  684.3023m 
 -483.77475m   30.2381n  700.0000m   15.8392m  684.1608m 
 -483.67475m   30.3743n  700.0000m   15.9806m  684.0194m 
 -483.57475m   30.5113n  700.0000m   16.1220m  683.8780m 
 -483.47475m   30.6490n  700.0000m   16.2634m  683.7366m 
 -483.37475m   30.7876n  700.0000m   16.4048m  683.5952m 
 -483.27475m   30.9270n  700.0000m   16.5463m  683.4537m 
 -483.17475m   31.0671n  700.0000m   16.6877m  683.3123m 
 -483.07475m   31.2081n  700.0000m   16.8291m  683.1709m 
 -482.97475m   31.3499n  700.0000m   16.9705m  683.0295m 
 -482.87475m   31.4925n  700.0000m   17.1120m  682.8880m 
 -482.77475m   31.6359n  700.0000m   17.2534m  682.7466m 
 -482.67475m   31.7802n  700.0000m   17.3948m  682.6052m 
 -482.57475m   31.9253n  700.0000m   17.5362m  682.4638m 
 -482.47475m   32.0712n  700.0000m   17.6776m  682.3224m 
 -482.37475m   32.2180n  700.0000m   17.8191m  682.1809m 
 -482.27475m   32.3656n  700.0000m   17.9605m  682.0395m 
 -482.17475m   32.5141n  700.0000m   18.1019m  681.8981m 
 -482.07475m   32.6634n  700.0000m   18.2433m  681.7567m 
 -481.97475m   32.8136n  700.0000m   18.3847m  681.6153m 
 -481.87475m   32.9647n  700.0000m   18.5262m  681.4738m 
 -481.77475m   33.1166n  700.0000m   18.6676m  681.3324m 
 -481.67475m   33.2694n  700.0000m   18.8090m  681.1910m 
 -481.57475m   33.4231n  700.0000m   18.9504m  681.0496m 
 -481.47475m   33.5777n  700.0000m   19.0919m  680.9082m 
 -481.37475m   33.7332n  700.0000m   19.2333m  680.7667m 
 -481.27475m   33.8895n  700.0000m   19.3747m  680.6253m 
 -481.17475m   34.0468n  700.0000m   19.5161m  680.4839m 
 -481.07475m   34.2050n  700.0000m   19.6575m  680.3425m 
 -480.97475m   34.3641n  700.0000m   19.7990m  680.2010m 
 -480.87475m   34.5241n  700.0000m   19.9404m  680.0596m 
 -480.77475m   34.6851n  700.0000m   20.0818m  679.9182m 
 -480.67475m   34.8470n  700.0000m   20.2232m  679.7768m 
 -480.57475m   35.0098n  700.0000m   20.3646m  679.6354m 
 -480.47475m   35.1735n  700.0000m   20.5061m  679.4939m 
 -480.37475m   35.3382n  700.0000m   20.6475m  679.3525m 
 -480.27475m   35.5039n  700.0000m   20.7889m  679.2111m 
 -480.17475m   35.6705n  700.0000m   20.9303m  679.0697m 
 -480.07475m   35.8381n  700.0000m   21.0717m  678.9283m 
 -479.97475m   36.0066n  700.0000m   21.2132m  678.7868m 
 -479.87475m   36.1761n  700.0000m   21.3546m  678.6454m 
 -479.77475m   36.3466n  700.0000m   21.4960m  678.5040m 
 -479.67475m   36.5181n  700.0000m   21.6374m  678.3626m 
 -479.57475m   36.6905n  700.0000m   21.7789m  678.2211m 
 -479.47475m   36.8640n  700.0000m   21.9203m  678.0797m 
 -479.37475m   37.0385n  700.0000m   22.0617m  677.9383m 
 -479.27475m   37.2140n  700.0000m   22.2031m  677.7969m 
 -479.17475m   37.3905n  700.0000m   22.3445m  677.6555m 
 -479.07475m   37.5680n  700.0000m   22.4860m  677.5140m 
 -478.97475m   37.7465n  700.0000m   22.6274m  677.3726m 
 -478.87475m   37.9261n  700.0000m   22.7688m  677.2312m 
 -478.77475m   38.1067n  700.0000m   22.9102m  677.0898m 
 -478.67475m   38.2883n  700.0000m   23.0516m  676.9484m 
 -478.57475m   38.4710n  700.0000m   23.1931m  676.8069m 
 -478.47475m   38.6548n  700.0000m   23.3345m  676.6655m 
 -478.37475m   38.8396n  700.0000m   23.4759m  676.5241m 
 -478.27475m   39.0255n  700.0000m   23.6173m  676.3827m 
 -478.17475m   39.2125n  700.0000m   23.7588m  676.2413m 
 -478.07475m   39.4005n  700.0000m   23.9002m  676.0998m 
 -477.97475m   39.5896n  700.0000m   24.0416m  675.9584m 
 -477.87475m   39.7799n  700.0000m   24.1830m  675.8170m 
 -477.77475m   39.9712n  700.0000m   24.3244m  675.6756m 
 -477.67475m   40.1636n  700.0000m   24.4659m  675.5341m 
 -477.57475m   40.3572n  700.0000m   24.6073m  675.3927m 
 -477.47475m   40.5518n  700.0000m   24.7487m  675.2513m 
 -477.37475m   40.7476n  700.0000m   24.8901m  675.1099m 
 -477.27475m   40.9445n  700.0000m   25.0315m  674.9685m 
 -477.17475m   41.1426n  700.0000m   25.1730m  674.8270m 
 -477.07475m   41.3418n  700.0000m   25.3144m  674.6856m 
 -476.97475m   41.5422n  700.0000m   25.4558m  674.5442m 
 -476.87475m   41.7437n  700.0000m   25.5972m  674.4028m 
 -476.77475m   41.9464n  700.0000m   25.7386m  674.2614m 
 -476.67475m   42.1502n  700.0000m   25.8801m  674.1199m 
 -476.57475m   42.3552n  700.0000m   26.0215m  673.9785m 
 -476.47475m   42.5615n  700.0000m   26.1629m  673.8371m 
 -476.37475m   42.7689n  700.0000m   26.3043m  673.6957m 
 -476.27475m   42.9775n  700.0000m   26.4458m  673.5542m 
 -476.17475m   43.1873n  700.0000m   26.5872m  673.4128m 
 -476.07475m   43.3983n  700.0000m   26.7286m  673.2714m 
 -475.97475m   43.6106n  700.0000m   26.8700m  673.1300m 
 -475.87475m   43.8240n  700.0000m   27.0114m  672.9886m 
 -475.77475m   44.0388n  700.0000m   27.1529m  672.8471m 
 -475.67475m   44.2547n  700.0000m   27.2943m  672.7057m 
 -475.57475m   44.4719n  700.0000m   27.4357m  672.5643m 
 -475.47475m   44.6904n  700.0000m   27.5771m  672.4229m 
 -475.37475m   44.9101n  700.0000m   27.7185m  672.2815m 
 -475.27475m   45.1311n  700.0000m   27.8600m  672.1400m 
 -475.17475m   45.3534n  700.0000m   28.0014m  671.9986m 
 -475.07475m   45.5769n  700.0000m   28.1428m  671.8572m 
 -474.97475m   45.8018n  700.0000m   28.2842m  671.7158m 
 -474.87475m   46.0280n  700.0000m   28.4256m  671.5744m 
 -474.77475m   46.2554n  700.0000m   28.5671m  671.4329m 
 -474.67475m   46.4842n  700.0000m   28.7085m  671.2915m 
 -474.57475m   46.7143n  700.0000m   28.8499m  671.1501m 
 -474.47475m   46.9457n  700.0000m   28.9913m  671.0087m 
 -474.37475m   47.1785n  700.0000m   29.1328m  670.8672m 
 -474.27475m   47.4126n  700.0000m   29.2742m  670.7258m 
 -474.17475m   47.6481n  700.0000m   29.4156m  670.5844m 
 -474.07475m   47.8850n  700.0000m   29.5570m  670.4430m 
 -473.97475m   48.1232n  700.0000m   29.6984m  670.3016m 
 -473.87475m   48.3628n  700.0000m   29.8399m  670.1601m 
 -473.77475m   48.6037n  700.0000m   29.9813m  670.0187m 
 -473.67475m   48.8461n  700.0000m   30.1227m  669.8773m 
 -473.57475m   49.0899n  700.0000m   30.2641m  669.7359m 
 -473.47475m   49.3351n  700.0000m   30.4055m  669.5945m 
 -473.37475m   49.5817n  700.0000m   30.5470m  669.4530m 
 -473.27475m   49.8297n  700.0000m   30.6884m  669.3116m 
 -473.17475m   50.0792n  700.0000m   30.8298m  669.1702m 
 -473.07475m   50.3301n  700.0000m   30.9712m  669.0288m 
 -472.97475m   50.5824n  700.0000m   31.1127m  668.8874m 
 -472.87475m   50.8363n  700.0000m   31.2541m  668.7459m 
 -472.77475m   51.0916n  700.0000m   31.3955m  668.6045m 
 -472.67475m   51.3483n  700.0000m   31.5369m  668.4631m 
 -472.57475m   51.6066n  700.0000m   31.6783m  668.3217m 
 -472.47475m   51.8663n  700.0000m   31.8198m  668.1802m 
 -472.37475m   52.1276n  700.0000m   31.9612m  668.0388m 
 -472.27475m   52.3904n  700.0000m   32.1026m  667.8974m 
 -472.17475m   52.6547n  700.0000m   32.2440m  667.7560m 
 -472.07475m   52.9205n  700.0000m   32.3854m  667.6146m 
 -471.97475m   53.1879n  700.0000m   32.5269m  667.4731m 
 -471.87475m   53.4568n  700.0000m   32.6683m  667.3317m 
 -471.77475m   53.7272n  700.0000m   32.8097m  667.1903m 
 -471.67475m   53.9993n  699.9999m   32.9511m  667.0489m 
 -471.57475m   54.2729n  699.9999m   33.0925m  666.9075m 
 -471.47475m   54.5481n  699.9999m   33.2340m  666.7660m 
 -471.37475m   54.8249n  699.9999m   33.3754m  666.6246m 
 -471.27475m   55.1033n  699.9999m   33.5168m  666.4832m 
 -471.17475m   55.3833n  699.9999m   33.6582m  666.3418m 
 -471.07475m   55.6649n  699.9999m   33.7997m  666.2004m 
 -470.97475m   55.9482n  699.9999m   33.9411m  666.0589m 
 -470.87475m   56.2331n  699.9999m   34.0825m  665.9175m 
 -470.77475m   56.5196n  699.9999m   34.2239m  665.7761m 
 -470.67475m   56.8079n  699.9999m   34.3653m  665.6347m 
 -470.57475m   57.0977n  699.9999m   34.5068m  665.4932m 
 -470.47475m   57.3893n  699.9999m   34.6482m  665.3518m 
 -470.37475m   57.6826n  699.9999m   34.7896m  665.2104m 
 -470.27475m   57.9775n  699.9999m   34.9310m  665.0690m 
 -470.17475m   58.2742n  699.9999m   35.0724m  664.9276m 
 -470.07475m   58.5725n  699.9999m   35.2139m  664.7861m 
 -469.97475m   58.8727n  699.9999m   35.3553m  664.6447m 
 -469.87475m   59.1745n  699.9999m   35.4967m  664.5033m 
 -469.77475m   59.4781n  699.9999m   35.6381m  664.3619m 
 -469.67475m   59.7835n  699.9999m   35.7795m  664.2205m 
 -469.57475m   60.0906n  699.9999m   35.9210m  664.0790m 
 -469.47475m   60.3995n  699.9999m   36.0624m  663.9376m 
 -469.37475m   60.7102n  699.9999m   36.2038m  663.7962m 
 -469.27475m   61.0227n  699.9999m   36.3452m  663.6548m 
 -469.17475m   61.3370n  699.9999m   36.4867m  663.5134m 
 -469.07475m   61.6531n  699.9999m   36.6281m  663.3719m 
 -468.97475m   61.9711n  699.9999m   36.7695m  663.2305m 
 -468.87475m   62.2909n  699.9999m   36.9109m  663.0891m 
 -468.77475m   62.6126n  699.9999m   37.0523m  662.9477m 
 -468.67475m   62.9361n  699.9999m   37.1938m  662.8062m 
 -468.57475m   63.2615n  699.9999m   37.3352m  662.6648m 
 -468.47475m   63.5888n  699.9999m   37.4766m  662.5234m 
 -468.37475m   63.9180n  699.9999m   37.6180m  662.3820m 
 -468.27475m   64.2491n  699.9999m   37.7594m  662.2406m 
 -468.17475m   64.5821n  699.9999m   37.9009m  662.0991m 
 -468.07475m   64.9171n  699.9999m   38.0423m  661.9577m 
 -467.97475m   65.2540n  699.9999m   38.1837m  661.8163m 
 -467.87475m   65.5928n  699.9999m   38.3251m  661.6749m 
 -467.77475m   65.9336n  699.9999m   38.4665m  661.5335m 
 -467.67475m   66.2764n  699.9999m   38.6080m  661.3920m 
 -467.57475m   66.6212n  699.9999m   38.7494m  661.2506m 
 -467.47475m   66.9680n  699.9999m   38.8908m  661.1092m 
 -467.37475m   67.3168n  699.9999m   39.0322m  660.9678m 
 -467.27475m   67.6676n  699.9999m   39.1737m  660.8264m 
 -467.17475m   68.0204n  699.9999m   39.3151m  660.6849m 
 -467.07475m   68.3753n  699.9999m   39.4565m  660.5435m 
 -466.97475m   68.7323n  699.9999m   39.5979m  660.4021m 
 -466.87475m   69.0913n  699.9999m   39.7393m  660.2607m 
 -466.77475m   69.4524n  699.9999m   39.8808m  660.1192m 
 -466.67475m   69.8156n  699.9999m   40.0222m  659.9778m 
 -466.57475m   70.1809n  699.9999m   40.1636m  659.8364m 
 -466.47475m   70.5483n  699.9999m   40.3050m  659.6950m 
 -466.37475m   70.9179n  699.9999m   40.4464m  659.5536m 
 -466.27475m   71.2896n  699.9999m   40.5879m  659.4121m 
 -466.17475m   71.6635n  699.9999m   40.7293m  659.2707m 
 -466.07475m   72.0395n  699.9999m   40.8707m  659.1293m 
 -465.97475m   72.4177n  699.9999m   41.0121m  658.9879m 
 -465.87475m   72.7982n  699.9999m   41.1535m  658.8465m 
 -465.77475m   73.1808n  699.9999m   41.2950m  658.7050m 
 -465.67475m   73.5656n  699.9999m   41.4364m  658.5636m 
 -465.57475m   73.9527n  699.9999m   41.5778m  658.4222m 
 -465.47475m   74.3420n  699.9999m   41.7192m  658.2808m 
 -465.37475m   74.7336n  699.9999m   41.8607m  658.1394m 
 -465.27475m   75.1275n  699.9999m   42.0021m  657.9979m 
 -465.17475m   75.5236n  699.9999m   42.1435m  657.8565m 
 -465.07475m   75.9221n  699.9999m   42.2849m  657.7151m 
 -464.97475m   76.3228n  699.9999m   42.4263m  657.5737m 
 -464.87475m   76.7259n  699.9999m   42.5678m  657.4322m 
 -464.77475m   77.1313n  699.9999m   42.7092m  657.2908m 
 -464.67475m   77.5391n  699.9999m   42.8506m  657.1494m 
 -464.57475m   77.9493n  699.9999m   42.9920m  657.0080m 
 -464.47475m   78.3618n  699.9999m   43.1334m  656.8666m 
 -464.37475m   78.7767n  699.9999m   43.2749m  656.7251m 
 -464.27475m   79.1941n  699.9999m   43.4163m  656.5837m 
 -464.17475m   79.6139n  699.9999m   43.5577m  656.4423m 
 -464.07475m   80.0361n  699.9999m   43.6991m  656.3009m 
 -463.97475m   80.4607n  699.9999m   43.8405m  656.1595m 
 -463.87475m   80.8878n  699.9999m   43.9820m  656.0180m 
 -463.77475m   81.3174n  699.9999m   44.1234m  655.8766m 
 -463.67475m   81.7495n  699.9999m   44.2648m  655.7352m 
 -463.57475m   82.1841n  699.9999m   44.4062m  655.5938m 
