 ****** HSPICE -- Q-2020.03-SP2-2 linux64 (Nov  1 2020) ******                  
  Copyright (c) 1986 - 2025 by Synopsys, Inc. All Rights Reserved.              
  This software and the associated documentation are proprietary
  to Synopsys, Inc. This software may only be used in accordance
  with the terms and conditions of a written license agreement with
  Synopsys, Inc. All other use, reproduction, or distribution of
  this software is strictly prohibited.
  Input File: SRAM_SNM_TT.sp                                                    
  Command line options: /RAID2/cad/synopsys/hspice/2020.03-sp2-2/hspice/linux64/hspice -i SRAM_SNM_TT.sp -o SRAM_SNM_TT.lis
  Start time: Wed Mar 19 22:13:46 2025
 lic:  
 lic: FLEXlm: SDK_12.6 
 lic: USER:   es25MCS042           HOSTNAME: ee28 
 lic: HOSTID: "d85ed3efc19a"       PID:      83315 
 lic: Using FLEXlm license file: 
 lic: 26585@lshc 
 lic: Checkout 1 hspice 
 lic: License/Maintenance for hspice will expire on 14-may-2025/2024.09 
 lic: 233(in_use)/1100(total) FLOATING license(s) on SERVER 26585@lshc 
 lic:   
  
      
             
 Warning:'Floating bulk' occurs 1 times
 Summary of floating bulk:
 -----------------------
 |Node      |Device    |
 |----------+----------|
 |x         |mpr       |
 -----------------------
              
 *****************************************************************
 ******  option summary
 ******
 runlvl  = 3         bypass  = 2.0000    
 ******
 .title noise margin in hold operation

 ****** dc transfer curves tnom=  25.000 temp=  25.000 ******
x

 volt         voltage    voltage    voltage    voltage   
             q          qb         gr         gl         
    0.        369.3009m  369.3009m  369.3009m  369.3009m 
  100.00000u  369.4396m  369.1621m  369.2982m  369.3035m 
  200.00000u  369.5784m  369.0233m  369.2956m  369.3062m 
  300.00000u  369.7172m  368.8845m  369.2929m  369.3088m 
  400.00000u  369.8560m  368.7458m  369.2903m  369.3114m 
  500.00000u  369.9947m  368.6070m  369.2876m  369.3141m 
  600.00000u  370.1335m  368.4682m  369.2850m  369.3167m 
  700.00000u  370.2723m  368.3294m  369.2823m  369.3194m 
  800.00000u  370.4111m  368.1906m  369.2797m  369.3220m 
  900.00000u  370.5498m  368.0519m  369.2771m  369.3247m 
    1.00000m  370.6886m  367.9131m  369.2744m  369.3273m 
    1.10000m  370.8274m  367.7743m  369.2718m  369.3300m 
    1.20000m  370.9662m  367.6355m  369.2691m  369.3326m 
    1.30000m  371.1050m  367.4968m  369.2665m  369.3352m 
    1.40000m  371.2437m  367.3580m  369.2638m  369.3379m 
    1.50000m  371.3825m  367.2192m  369.2612m  369.3405m 
    1.60000m  371.5213m  367.0804m  369.2585m  369.3432m 
    1.70000m  371.6601m  366.9417m  369.2559m  369.3458m 
    1.80000m  371.7988m  366.8029m  369.2533m  369.3485m 
    1.90000m  371.9376m  366.6641m  369.2506m  369.3511m 
    2.00000m  372.0764m  366.5253m  369.2480m  369.3538m 
    2.10000m  372.2152m  366.3866m  369.2453m  369.3564m 
    2.20000m  372.3539m  366.2478m  369.2427m  369.3591m 
    2.30000m  372.4927m  366.1090m  369.2400m  369.3617m 
    2.40000m  372.6315m  365.9702m  369.2374m  369.3643m 
    2.50000m  372.7703m  365.8315m  369.2347m  369.3670m 
    2.60000m  372.9091m  365.6927m  369.2321m  369.3696m 
    2.70000m  373.0478m  365.5539m  369.2295m  369.3723m 
    2.80000m  373.1866m  365.4151m  369.2268m  369.3749m 
    2.90000m  373.3254m  365.2764m  369.2242m  369.3776m 
    3.00000m  373.4642m  365.1376m  369.2215m  369.3802m 
    3.10000m  373.6029m  364.9988m  369.2189m  369.3829m 
    3.20000m  373.7417m  364.8600m  369.2162m  369.3855m 
    3.30000m  373.8805m  364.7213m  369.2136m  369.3882m 
    3.40000m  374.0193m  364.5825m  369.2109m  369.3908m 
    3.50000m  374.1580m  364.4437m  369.2083m  369.3935m 
    3.60000m  374.2968m  364.3049m  369.2057m  369.3961m 
    3.70000m  374.4356m  364.1662m  369.2030m  369.3987m 
    3.80000m  374.5744m  364.0274m  369.2004m  369.4014m 
    3.90000m  374.7132m  363.8886m  369.1977m  369.4040m 
    4.00000m  374.8519m  363.7498m  369.1951m  369.4067m 
    4.10000m  374.9907m  363.6111m  369.1924m  369.4093m 
    4.20000m  375.1295m  363.4723m  369.1898m  369.4120m 
    4.30000m  375.2683m  363.3335m  369.1871m  369.4146m 
    4.40000m  375.4070m  363.1947m  369.1845m  369.4173m 
    4.50000m  375.5458m  363.0560m  369.1819m  369.4199m 
    4.60000m  375.6846m  362.9172m  369.1792m  369.4226m 
    4.70000m  375.8234m  362.7784m  369.1766m  369.4252m 
    4.80000m  375.9622m  362.6396m  369.1739m  369.4279m 
    4.90000m  376.1009m  362.5009m  369.1713m  369.4305m 
    5.00000m  376.2397m  362.3621m  369.1686m  369.4331m 
    5.10000m  376.3785m  362.2233m  369.1660m  369.4358m 
    5.20000m  376.5173m  362.0845m  369.1634m  369.4384m 
    5.30000m  376.6560m  361.9458m  369.1607m  369.4411m 
    5.40000m  376.7948m  361.8070m  369.1581m  369.4437m 
    5.50000m  376.9336m  361.6682m  369.1554m  369.4464m 
    5.60000m  377.0724m  361.5294m  369.1528m  369.4490m 
    5.70000m  377.2111m  361.3907m  369.1501m  369.4517m 
    5.80000m  377.3499m  361.2519m  369.1475m  369.4543m 
    5.90000m  377.4887m  361.1131m  369.1448m  369.4570m 
    6.00000m  377.6275m  360.9743m  369.1422m  369.4596m 
    6.10000m  377.7663m  360.8356m  369.1396m  369.4623m 
    6.20000m  377.9050m  360.6968m  369.1369m  369.4649m 
    6.30000m  378.0438m  360.5580m  369.1343m  369.4676m 
    6.40000m  378.1826m  360.4192m  369.1316m  369.4702m 
    6.50000m  378.3214m  360.2805m  369.1290m  369.4729m 
    6.60000m  378.4601m  360.1417m  369.1263m  369.4755m 
    6.70000m  378.5989m  360.0029m  369.1237m  369.4781m 
    6.80000m  378.7377m  359.8641m  369.1210m  369.4808m 
    6.90000m  378.8765m  359.7254m  369.1184m  369.4834m 
    7.00000m  379.0153m  359.5866m  369.1158m  369.4861m 
    7.10000m  379.1540m  359.4478m  369.1131m  369.4887m 
    7.20000m  379.2928m  359.3090m  369.1105m  369.4914m 
    7.30000m  379.4316m  359.1703m  369.1078m  369.4940m 
    7.40000m  379.5704m  359.0315m  369.1052m  369.4967m 
    7.50000m  379.7091m  358.8927m  369.1025m  369.4993m 
    7.60000m  379.8479m  358.7540m  369.0999m  369.5020m 
    7.70000m  379.9867m  358.6152m  369.0973m  369.5046m 
    7.80000m  380.1255m  358.4764m  369.0946m  369.5073m 
    7.90000m  380.2643m  358.3376m  369.0920m  369.5099m 
    8.00000m  380.4030m  358.1989m  369.0893m  369.5126m 
    8.10000m  380.5418m  358.0601m  369.0867m  369.5152m 
    8.20000m  380.6806m  357.9213m  369.0840m  369.5179m 
    8.30000m  380.8194m  357.7825m  369.0814m  369.5205m 
    8.40000m  380.9581m  357.6438m  369.0787m  369.5232m 
    8.50000m  381.0969m  357.5050m  369.0761m  369.5258m 
    8.60000m  381.2357m  357.3662m  369.0735m  369.5285m 
    8.70000m  381.3745m  357.2274m  369.0708m  369.5311m 
    8.80000m  381.5132m  357.0887m  369.0682m  369.5338m 
    8.90000m  381.6520m  356.9499m  369.0655m  369.5364m 
    9.00000m  381.7908m  356.8111m  369.0629m  369.5390m 
    9.10000m  381.9296m  356.6724m  369.0602m  369.5417m 
    9.20000m  382.0684m  356.5336m  369.0576m  369.5443m 
    9.30000m  382.2071m  356.3948m  369.0549m  369.5470m 
    9.40000m  382.3459m  356.2560m  369.0523m  369.5496m 
    9.50000m  382.4847m  356.1173m  369.0497m  369.5523m 
    9.60000m  382.6235m  355.9785m  369.0470m  369.5549m 
    9.70000m  382.7622m  355.8397m  369.0444m  369.5576m 
    9.80000m  382.9010m  355.7009m  369.0417m  369.5602m 
    9.90000m  383.0398m  355.5622m  369.0391m  369.5629m 
   10.00000m  383.1786m  355.4234m  369.0364m  369.5655m 
   10.10000m  383.3174m  355.2846m  369.0338m  369.5682m 
   10.20000m  383.4561m  355.1459m  369.0312m  369.5708m 
   10.30000m  383.5949m  355.0071m  369.0285m  369.5735m 
   10.40000m  383.7337m  354.8683m  369.0259m  369.5761m 
   10.50000m  383.8725m  354.7295m  369.0232m  369.5788m 
   10.60000m  384.0112m  354.5908m  369.0206m  369.5814m 
   10.70000m  384.1500m  354.4520m  369.0179m  369.5841m 
   10.80000m  384.2888m  354.3132m  369.0153m  369.5867m 
   10.90000m  384.4276m  354.1745m  369.0126m  369.5894m 
   11.00000m  384.5663m  354.0357m  369.0100m  369.5920m 
   11.10000m  384.7051m  353.8969m  369.0074m  369.5947m 
   11.20000m  384.8439m  353.7581m  369.0047m  369.5973m 
   11.30000m  384.9827m  353.6194m  369.0021m  369.6000m 
   11.40000m  385.1215m  353.4806m  368.9994m  369.6026m 
   11.50000m  385.2602m  353.3418m  368.9968m  369.6053m 
   11.60000m  385.3990m  353.2031m  368.9941m  369.6079m 
   11.70000m  385.5378m  353.0643m  368.9915m  369.6106m 
   11.80000m  385.6766m  352.9255m  368.9888m  369.6132m 
   11.90000m  385.8153m  352.7867m  368.9862m  369.6159m 
   12.00000m  385.9541m  352.6480m  368.9836m  369.6185m 
   12.10000m  386.0929m  352.5092m  368.9809m  369.6212m 
   12.20000m  386.2317m  352.3704m  368.9783m  369.6238m 
   12.30000m  386.3705m  352.2317m  368.9756m  369.6265m 
   12.40000m  386.5092m  352.0929m  368.9730m  369.6291m 
   12.50000m  386.6480m  351.9541m  368.9703m  369.6318m 
   12.60000m  386.7868m  351.8153m  368.9677m  369.6344m 
   12.70000m  386.9256m  351.6766m  368.9650m  369.6371m 
   12.80000m  387.0643m  351.5378m  368.9624m  369.6397m 
   12.90000m  387.2031m  351.3990m  368.9598m  369.6424m 
   13.00000m  387.3419m  351.2603m  368.9571m  369.6450m 
   13.10000m  387.4807m  351.1215m  368.9545m  369.6477m 
   13.20000m  387.6194m  350.9827m  368.9518m  369.6503m 
   13.30000m  387.7582m  350.8440m  368.9492m  369.6530m 
   13.40000m  387.8970m  350.7052m  368.9465m  369.6556m 
   13.50000m  388.0358m  350.5664m  368.9439m  369.6583m 
   13.60000m  388.1746m  350.4276m  368.9412m  369.6610m 
   13.70000m  388.3133m  350.2889m  368.9386m  369.6636m 
   13.80000m  388.4521m  350.1501m  368.9360m  369.6663m 
   13.90000m  388.5909m  350.0113m  368.9333m  369.6689m 
   14.00000m  388.7297m  349.8726m  368.9307m  369.6716m 
   14.10000m  388.8684m  349.7338m  368.9280m  369.6742m 
   14.20000m  389.0072m  349.5950m  368.9254m  369.6769m 
   14.30000m  389.1460m  349.4563m  368.9227m  369.6795m 
   14.40000m  389.2848m  349.3175m  368.9201m  369.6822m 
   14.50000m  389.4235m  349.1787m  368.9174m  369.6848m 
   14.60000m  389.5623m  349.0400m  368.9148m  369.6875m 
   14.70000m  389.7011m  348.9012m  368.9122m  369.6901m 
   14.80000m  389.8399m  348.7624m  368.9095m  369.6928m 
   14.90000m  389.9786m  348.6236m  368.9069m  369.6954m 
   15.00000m  390.1174m  348.4849m  368.9042m  369.6981m 
   15.10000m  390.2562m  348.3461m  368.9016m  369.7007m 
   15.20000m  390.3950m  348.2073m  368.8989m  369.7034m 
   15.30000m  390.5338m  348.0686m  368.8963m  369.7060m 
   15.40000m  390.6725m  347.9298m  368.8936m  369.7087m 
   15.50000m  390.8113m  347.7910m  368.8910m  369.7113m 
   15.60000m  390.9501m  347.6523m  368.8883m  369.7140m 
   15.70000m  391.0889m  347.5135m  368.8857m  369.7167m 
   15.80000m  391.2276m  347.3747m  368.8831m  369.7193m 
   15.90000m  391.3664m  347.2360m  368.8804m  369.7220m 
   16.00000m  391.5052m  347.0972m  368.8778m  369.7246m 
   16.10000m  391.6440m  346.9584m  368.8751m  369.7273m 
   16.20000m  391.7827m  346.8197m  368.8725m  369.7299m 
   16.30000m  391.9215m  346.6809m  368.8698m  369.7326m 
   16.40000m  392.0603m  346.5421m  368.8672m  369.7352m 
   16.50000m  392.1991m  346.4034m  368.8645m  369.7379m 
   16.60000m  392.3378m  346.2646m  368.8619m  369.7405m 
   16.70000m  392.4766m  346.1258m  368.8592m  369.7432m 
   16.80000m  392.6154m  345.9871m  368.8566m  369.7458m 
   16.90000m  392.7542m  345.8483m  368.8540m  369.7485m 
   17.00000m  392.8929m  345.7095m  368.8513m  369.7512m 
   17.10000m  393.0317m  345.5708m  368.8487m  369.7538m 
   17.20000m  393.1705m  345.4320m  368.8460m  369.7565m 
   17.30000m  393.3093m  345.2932m  368.8434m  369.7591m 
   17.40000m  393.4480m  345.1545m  368.8407m  369.7618m 
   17.50000m  393.5868m  345.0157m  368.8381m  369.7644m 
   17.60000m  393.7256m  344.8769m  368.8354m  369.7671m 
   17.70000m  393.8644m  344.7382m  368.8328m  369.7697m 
   17.80000m  394.0031m  344.5994m  368.8301m  369.7724m 
   17.90000m  394.1419m  344.4606m  368.8275m  369.7750m 
   18.00000m  394.2807m  344.3219m  368.8249m  369.7777m 
   18.10000m  394.4195m  344.1831m  368.8222m  369.7804m 
   18.20000m  394.5582m  344.0443m  368.8196m  369.7830m 
   18.30000m  394.6970m  343.9056m  368.8169m  369.7857m 
   18.40000m  394.8358m  343.7668m  368.8143m  369.7883m 
   18.50000m  394.9746m  343.6280m  368.8116m  369.7910m 
   18.60000m  395.1133m  343.4893m  368.8090m  369.7936m 
   18.70000m  395.2521m  343.3505m  368.8063m  369.7963m 
   18.80000m  395.3909m  343.2117m  368.8037m  369.7989m 
   18.90000m  395.5297m  343.0730m  368.8010m  369.8016m 
   19.00000m  395.6684m  342.9342m  368.7984m  369.8043m 
   19.10000m  395.8072m  342.7954m  368.7957m  369.8069m 
   19.20000m  395.9460m  342.6567m  368.7931m  369.8096m 
   19.30000m  396.0848m  342.5179m  368.7905m  369.8122m 
   19.40000m  396.2235m  342.3791m  368.7878m  369.8149m 
   19.50000m  396.3623m  342.2404m  368.7852m  369.8175m 
   19.60000m  396.5011m  342.1016m  368.7825m  369.8202m 
   19.70000m  396.6399m  341.9628m  368.7799m  369.8228m 
   19.80000m  396.7786m  341.8241m  368.7772m  369.8255m 
   19.90000m  396.9174m  341.6853m  368.7746m  369.8282m 
   20.00000m  397.0562m  341.5465m  368.7719m  369.8308m 
   20.10000m  397.1950m  341.4078m  368.7693m  369.8335m 
   20.20000m  397.3337m  341.2690m  368.7666m  369.8361m 
   20.30000m  397.4725m  341.1303m  368.7640m  369.8388m 
   20.40000m  397.6113m  340.9915m  368.7613m  369.8414m 
   20.50000m  397.7501m  340.8527m  368.7587m  369.8441m 
   20.60000m  397.8888m  340.7140m  368.7560m  369.8468m 
   20.70000m  398.0276m  340.5752m  368.7534m  369.8494m 
   20.80000m  398.1664m  340.4364m  368.7507m  369.8521m 
   20.90000m  398.3052m  340.2977m  368.7481m  369.8547m 
   21.00000m  398.4439m  340.1589m  368.7455m  369.8574m 
   21.10000m  398.5827m  340.0201m  368.7428m  369.8600m 
   21.20000m  398.7215m  339.8814m  368.7402m  369.8627m 
   21.30000m  398.8603m  339.7426m  368.7375m  369.8654m 
   21.40000m  398.9990m  339.6039m  368.7349m  369.8680m 
   21.50000m  399.1378m  339.4651m  368.7322m  369.8707m 
   21.60000m  399.2766m  339.3263m  368.7296m  369.8733m 
   21.70000m  399.4154m  339.1876m  368.7269m  369.8760m 
   21.80000m  399.5541m  339.0488m  368.7243m  369.8787m 
   21.90000m  399.6929m  338.9100m  368.7216m  369.8813m 
   22.00000m  399.8317m  338.7713m  368.7190m  369.8840m 
   22.10000m  399.9704m  338.6325m  368.7163m  369.8866m 
   22.20000m  400.1092m  338.4938m  368.7137m  369.8893m 
   22.30000m  400.2480m  338.3550m  368.7110m  369.8920m 
   22.40000m  400.3868m  338.2162m  368.7084m  369.8946m 
   22.50000m  400.5255m  338.0775m  368.7057m  369.8973m 
   22.60000m  400.6643m  337.9387m  368.7031m  369.8999m 
   22.70000m  400.8031m  337.7999m  368.7004m  369.9026m 
   22.80000m  400.9419m  337.6612m  368.6978m  369.9052m 
   22.90000m  401.0806m  337.5224m  368.6951m  369.9079m 
   23.00000m  401.2194m  337.3837m  368.6925m  369.9106m 
   23.10000m  401.3582m  337.2449m  368.6898m  369.9132m 
   23.20000m  401.4970m  337.1061m  368.6872m  369.9159m 
   23.30000m  401.6357m  336.9674m  368.6845m  369.9185m 
   23.40000m  401.7745m  336.8286m  368.6819m  369.9212m 
   23.50000m  401.9133m  336.6898m  368.6792m  369.9239m 
   23.60000m  402.0520m  336.5511m  368.6766m  369.9265m 
   23.70000m  402.1908m  336.4123m  368.6740m  369.9292m 
   23.80000m  402.3296m  336.2736m  368.6713m  369.9318m 
   23.90000m  402.4684m  336.1348m  368.6687m  369.9345m 
   24.00000m  402.6071m  335.9960m  368.6660m  369.9372m 
   24.10000m  402.7459m  335.8573m  368.6634m  369.9398m 
   24.20000m  402.8847m  335.7185m  368.6607m  369.9425m 
   24.30000m  403.0234m  335.5798m  368.6581m  369.9452m 
   24.40000m  403.1622m  335.4410m  368.6554m  369.9478m 
   24.50000m  403.3010m  335.3022m  368.6528m  369.9505m 
   24.60000m  403.4398m  335.1635m  368.6501m  369.9531m 
   24.70000m  403.5785m  335.0247m  368.6475m  369.9558m 
   24.80000m  403.7173m  334.8860m  368.6448m  369.9585m 
   24.90000m  403.8561m  334.7472m  368.6422m  369.9611m 
   25.00000m  403.9948m  334.6084m  368.6395m  369.9638m 
   25.10000m  404.1336m  334.4697m  368.6369m  369.9664m 
   25.20000m  404.2724m  334.3309m  368.6342m  369.9691m 
   25.30000m  404.4112m  334.1922m  368.6316m  369.9718m 
   25.40000m  404.5499m  334.0534m  368.6289m  369.9744m 
   25.50000m  404.6887m  333.9147m  368.6263m  369.9771m 
   25.60000m  404.8275m  333.7759m  368.6236m  369.9798m 
   25.70000m  404.9662m  333.6371m  368.6210m  369.9824m 
   25.80000m  405.1050m  333.4984m  368.6183m  369.9851m 
   25.90000m  405.2438m  333.3596m  368.6157m  369.9877m 
   26.00000m  405.3826m  333.2209m  368.6130m  369.9904m 
   26.10000m  405.5213m  333.0821m  368.6104m  369.9931m 
   26.20000m  405.6601m  332.9433m  368.6077m  369.9957m 
   26.30000m  405.7989m  332.8046m  368.6051m  369.9984m 
   26.40000m  405.9376m  332.6658m  368.6024m  370.0011m 
   26.50000m  406.0764m  332.5271m  368.5998m  370.0037m 
   26.60000m  406.2152m  332.3883m  368.5971m  370.0064m 
   26.70000m  406.3540m  332.2496m  368.5944m  370.0091m 
   26.80000m  406.4927m  332.1108m  368.5918m  370.0117m 
   26.90000m  406.6315m  331.9720m  368.5891m  370.0144m 
   27.00000m  406.7703m  331.8333m  368.5865m  370.0170m 
   27.10000m  406.9090m  331.6945m  368.5838m  370.0197m 
   27.20000m  407.0478m  331.5558m  368.5812m  370.0224m 
   27.30000m  407.1866m  331.4170m  368.5785m  370.0250m 
   27.40000m  407.3253m  331.2783m  368.5759m  370.0277m 
   27.50000m  407.4641m  331.1395m  368.5732m  370.0304m 
   27.60000m  407.6029m  331.0007m  368.5706m  370.0330m 
   27.70000m  407.7416m  330.8620m  368.5679m  370.0357m 
   27.80000m  407.8804m  330.7232m  368.5653m  370.0384m 
   27.90000m  408.0192m  330.5845m  368.5626m  370.0410m 
   28.00000m  408.1580m  330.4457m  368.5600m  370.0437m 
   28.10000m  408.2967m  330.3070m  368.5573m  370.0464m 
   28.20000m  408.4355m  330.1682m  368.5547m  370.0490m 
   28.30000m  408.5743m  330.0294m  368.5520m  370.0517m 
   28.40000m  408.7130m  329.8907m  368.5494m  370.0544m 
   28.50000m  408.8518m  329.7519m  368.5467m  370.0570m 
   28.60000m  408.9906m  329.6132m  368.5441m  370.0597m 
   28.70000m  409.1293m  329.4744m  368.5414m  370.0624m 
   28.80000m  409.2681m  329.3357m  368.5388m  370.0650m 
   28.90000m  409.4069m  329.1969m  368.5361m  370.0677m 
   29.00000m  409.5456m  329.0582m  368.5335m  370.0704m 
   29.10000m  409.6844m  328.9194m  368.5308m  370.0730m 
   29.20000m  409.8232m  328.7807m  368.5281m  370.0757m 
   29.30000m  409.9619m  328.6419m  368.5255m  370.0784m 
   29.40000m  410.1007m  328.5031m  368.5228m  370.0810m 
   29.50000m  410.2395m  328.3644m  368.5202m  370.0837m 
   29.60000m  410.3783m  328.2256m  368.5175m  370.0864m 
   29.70000m  410.5170m  328.0869m  368.5149m  370.0890m 
   29.80000m  410.6558m  327.9481m  368.5122m  370.0917m 
   29.90000m  410.7946m  327.8094m  368.5096m  370.0944m 
   30.00000m  410.9333m  327.6706m  368.5069m  370.0970m 
   30.10000m  411.0721m  327.5319m  368.5043m  370.0997m 
   30.20000m  411.2109m  327.3931m  368.5016m  370.1024m 
   30.30000m  411.3496m  327.2544m  368.4990m  370.1050m 
   30.40000m  411.4884m  327.1156m  368.4963m  370.1077m 
   30.50000m  411.6272m  326.9769m  368.4936m  370.1104m 
   30.60000m  411.7659m  326.8381m  368.4910m  370.1130m 
   30.70000m  411.9047m  326.6994m  368.4883m  370.1157m 
   30.80000m  412.0435m  326.5606m  368.4857m  370.1184m 
   30.90000m  412.1822m  326.4218m  368.4830m  370.1210m 
   31.00000m  412.3210m  326.2831m  368.4804m  370.1237m 
   31.10000m  412.4598m  326.1443m  368.4777m  370.1264m 
   31.20000m  412.5985m  326.0056m  368.4751m  370.1291m 
   31.30000m  412.7373m  325.8668m  368.4724m  370.1317m 
   31.40000m  412.8761m  325.7281m  368.4698m  370.1344m 
