 ****** HSPICE -- Q-2020.03-SP2-2 linux64 (Nov  1 2020) ******                  
  Copyright (c) 1986 - 2025 by Synopsys, Inc. All Rights Reserved.              
  This software and the associated documentation are proprietary
  to Synopsys, Inc. This software may only be used in accordance
  with the terms and conditions of a written license agreement with
  Synopsys, Inc. All other use, reproduction, or distribution of
  this software is strictly prohibited.
  Input File: SRAM_RSNM_TT_DifSupply.sp                                         
  Command line options: /RAID2/cad/synopsys/hspice/2020.03-sp2-2/hspice/linux64/hspice -i SRAM_RSNM_TT_DifSupply.sp -o SRAM_RSNM_TT_DifSupply.lis
  Start time: Sun Mar 23 20:40:12 2025
 lic:  
 lic: FLEXlm: SDK_12.6 
 lic: USER:   es25MCS042           HOSTNAME: ee28 
 lic: HOSTID: "d85ed3efc19a"       PID:      66504 
 lic: Using FLEXlm license file: 
 lic: 26585@lshc 
 lic: Checkout 1 hspice 
 lic: License/Maintenance for hspice will expire on 14-may-2025/2024.09 
 lic: 193(in_use)/1100(total) FLOATING license(s) on SERVER 26585@lshc 
 lic:   
  
      
             
 Warning:'Floating bulk' occurs 1 times
 Summary of floating bulk:
 -----------------------
 |Node      |Device    |
 |----------+----------|
 |x         |mpr       |
 -----------------------
              
 *****************************************************************
 ******  option summary
 ******
 runlvl  = 3         bypass  = 2.0000    
 ******
 .title noise margin in hold operation

 ****** dc transfer curves tnom=  25.000 temp=  25.000 ******
x

 volt         voltage    voltage    voltage    voltage   
             q          qb         gl         gr         
 -494.97475m  105.5790m  700.0000m   -7.8138n  805.5790m 
 -494.87475m  105.5899m  700.0000m  141.4135u  805.4485m 
 -494.77475m  105.6008m  700.0000m  282.8348u  805.3180m 
 -494.67475m  105.6117m  700.0000m  424.2562u  805.1874m 
 -494.57475m  105.6226m  700.0000m  565.6775u  805.0569m 
 -494.47475m  105.6335m  700.0000m  707.0988u  804.9264m 
 -494.37475m  105.6445m  700.0000m  848.5201u  804.7960m 
 -494.27475m  105.6554m  700.0000m  989.9414u  804.6655m 
 -494.17475m  105.6664m  700.0000m    1.1314m  804.5350m 
 -494.07475m  105.6773m  700.0000m    1.2728m  804.4045m 
 -493.97475m  105.6883m  700.0000m    1.4142m  804.2741m 
 -493.87475m  105.6993m  700.0000m    1.5556m  804.1436m 
 -493.77475m  105.7102m  700.0000m    1.6970m  804.0132m 
 -493.67475m  105.7212m  700.0000m    1.8385m  803.8827m 
 -493.57475m  105.7322m  700.0000m    1.9799m  803.7523m 
 -493.47475m  105.7432m  700.0000m    2.1213m  803.6219m 
 -493.37475m  105.7542m  700.0000m    2.2627m  803.4915m 
 -493.27475m  105.7652m  700.0000m    2.4042m  803.3611m 
 -493.17475m  105.7763m  700.0000m    2.5456m  803.2307m 
 -493.07475m  105.7873m  700.0000m    2.6870m  803.1003m 
 -492.97475m  105.7983m  700.0000m    2.8284m  802.9699m 
 -492.87475m  105.8094m  700.0000m    2.9698m  802.8395m 
 -492.77475m  105.8204m  700.0000m    3.1113m  802.7092m 
 -492.67475m  105.8315m  700.0000m    3.2527m  802.5788m 
 -492.57475m  105.8426m  700.0000m    3.3941m  802.4485m 
 -492.47475m  105.8537m  700.0000m    3.5355m  802.3181m 
 -492.37475m  105.8647m  700.0000m    3.6769m  802.1878m 
 -492.27475m  105.8758m  700.0000m    3.8184m  802.0575m 
 -492.17475m  105.8869m  700.0000m    3.9598m  801.9271m 
 -492.07475m  105.8981m  700.0000m    4.1012m  801.7968m 
 -491.97475m  105.9092m  700.0000m    4.2426m  801.6665m 
 -491.87475m  105.9203m  700.0000m    4.3841m  801.5362m 
 -491.77475m  105.9314m  700.0000m    4.5255m  801.4059m 
 -491.67475m  105.9426m  700.0000m    4.6669m  801.2757m 
 -491.57475m  105.9537m  700.0000m    4.8083m  801.1454m 
 -491.47475m  105.9649m  700.0000m    4.9497m  801.0151m 
 -491.37475m  105.9761m  700.0000m    5.0912m  800.8849m 
 -491.27475m  105.9872m  700.0000m    5.2326m  800.7546m 
 -491.17475m  105.9984m  700.0000m    5.3740m  800.6244m 
 -491.07475m  106.0096m  700.0000m    5.5154m  800.4942m 
 -490.97475m  106.0208m  700.0000m    5.6568m  800.3639m 
 -490.87475m  106.0320m  700.0000m    5.7983m  800.2337m 
 -490.77475m  106.0432m  700.0000m    5.9397m  800.1035m 
 -490.67475m  106.0544m  700.0000m    6.0811m  799.9733m 
 -490.57475m  106.0657m  700.0000m    6.2225m  799.8431m 
 -490.47475m  106.0769m  700.0000m    6.3640m  799.7130m 
 -490.37475m  106.0882m  700.0000m    6.5054m  799.5828m 
 -490.27475m  106.0994m  700.0000m    6.6468m  799.4526m 
 -490.17475m  106.1107m  700.0000m    6.7882m  799.3225m 
 -490.07475m  106.1219m  700.0000m    6.9296m  799.1923m 
 -489.97475m  106.1332m  700.0000m    7.0711m  799.0622m 
 -489.87475m  106.1445m  700.0000m    7.2125m  798.9320m 
 -489.77475m  106.1558m  700.0000m    7.3539m  798.8019m 
 -489.67475m  106.1671m  700.0000m    7.4953m  798.6718m 
 -489.57475m  106.1784m  700.0000m    7.6367m  798.5417m 
 -489.47475m  106.1897m  700.0000m    7.7782m  798.4116m 
 -489.37475m  106.2011m  700.0000m    7.9196m  798.2815m 
 -489.27475m  106.2124m  700.0000m    8.0610m  798.1514m 
 -489.17475m  106.2237m  700.0000m    8.2024m  798.0213m 
 -489.07475m  106.2351m  700.0000m    8.3438m  797.8912m 
 -488.97475m  106.2465m  700.0000m    8.4853m  797.7612m 
 -488.87475m  106.2578m  700.0000m    8.6267m  797.6311m 
 -488.77475m  106.2692m  700.0000m    8.7681m  797.5011m 
 -488.67475m  106.2806m  700.0000m    8.9095m  797.3710m 
 -488.57475m  106.2920m  700.0000m    9.0510m  797.2410m 
 -488.47475m  106.3034m  700.0000m    9.1924m  797.1110m 
 -488.37475m  106.3148m  700.0000m    9.3338m  796.9810m 
 -488.27475m  106.3262m  700.0000m    9.4752m  796.8510m 
 -488.17475m  106.3376m  700.0000m    9.6166m  796.7210m 
 -488.07475m  106.3491m  700.0000m    9.7581m  796.5910m 
 -487.97475m  106.3605m  700.0000m    9.8995m  796.4610m 
 -487.87475m  106.3720m  700.0000m   10.0409m  796.3310m 
 -487.77475m  106.3834m  700.0000m   10.1823m  796.2011m 
 -487.67475m  106.3949m  700.0000m   10.3237m  796.0711m 
 -487.57475m  106.4064m  700.0000m   10.4652m  795.9412m 
 -487.47475m  106.4178m  700.0000m   10.6066m  795.8112m 
 -487.37475m  106.4293m  700.0000m   10.7480m  795.6813m 
 -487.27475m  106.4408m  700.0000m   10.8894m  795.5514m 
 -487.17475m  106.4523m  700.0000m   11.0309m  795.4215m 
 -487.07475m  106.4638m  700.0000m   11.1723m  795.2916m 
 -486.97475m  106.4754m  700.0000m   11.3137m  795.1617m 
 -486.87475m  106.4869m  700.0000m   11.4551m  795.0318m 
 -486.77475m  106.4984m  700.0000m   11.5965m  794.9019m 
 -486.67475m  106.5100m  700.0000m   11.7380m  794.7720m 
 -486.57475m  106.5216m  700.0000m   11.8794m  794.6422m 
 -486.47475m  106.5331m  700.0000m   12.0208m  794.5123m 
 -486.37475m  106.5447m  700.0000m   12.1622m  794.3825m 
 -486.27475m  106.5563m  700.0000m   12.3036m  794.2526m 
 -486.17475m  106.5679m  700.0000m   12.4451m  794.1228m 
 -486.07475m  106.5795m  700.0000m   12.5865m  793.9930m 
 -485.97475m  106.5911m  700.0000m   12.7279m  793.8631m 
 -485.87475m  106.6027m  700.0000m   12.8693m  793.7333m 
 -485.77475m  106.6143m  700.0000m   13.0108m  793.6035m 
 -485.67475m  106.6259m  700.0000m   13.1522m  793.4738m 
 -485.57475m  106.6376m  700.0000m   13.2936m  793.3440m 
 -485.47475m  106.6492m  700.0000m   13.4350m  793.2142m 
 -485.37475m  106.6609m  700.0000m   13.5764m  793.0844m 
 -485.27475m  106.6725m  700.0000m   13.7179m  792.9547m 
 -485.17475m  106.6842m  700.0000m   13.8593m  792.8249m 
 -485.07475m  106.6959m  700.0000m   14.0007m  792.6952m 
 -484.97475m  106.7076m  700.0000m   14.1421m  792.5655m 
 -484.87475m  106.7193m  700.0000m   14.2835m  792.4357m 
 -484.77475m  106.7310m  700.0000m   14.4250m  792.3060m 
 -484.67475m  106.7427m  700.0000m   14.5664m  792.1763m 
 -484.57475m  106.7544m  700.0000m   14.7078m  792.0466m 
 -484.47475m  106.7662m  700.0000m   14.8492m  791.9169m 
 -484.37475m  106.7779m  700.0000m   14.9907m  791.7873m 
 -484.27475m  106.7897m  700.0000m   15.1321m  791.6576m 
 -484.17475m  106.8014m  700.0000m   15.2735m  791.5279m 
 -484.07475m  106.8132m  700.0000m   15.4149m  791.3983m 
 -483.97475m  106.8250m  700.0000m   15.5563m  791.2686m 
 -483.87475m  106.8368m  700.0000m   15.6978m  791.1390m 
 -483.77475m  106.8485m  700.0000m   15.8392m  791.0094m 
 -483.67475m  106.8603m  700.0000m   15.9806m  790.8797m 
 -483.57475m  106.8722m  700.0000m   16.1220m  790.7501m 
 -483.47475m  106.8840m  700.0000m   16.2634m  790.6205m 
 -483.37475m  106.8958m  700.0000m   16.4049m  790.4909m 
 -483.27475m  106.9076m  700.0000m   16.5463m  790.3613m 
 -483.17475m  106.9195m  700.0000m   16.6877m  790.2318m 
 -483.07475m  106.9313m  700.0000m   16.8291m  790.1022m 
 -482.97475m  106.9432m  700.0000m   16.9705m  789.9726m 
 -482.87475m  106.9551m  700.0000m   17.1120m  789.8431m 
 -482.77475m  106.9669m  700.0000m   17.2534m  789.7135m 
 -482.67475m  106.9788m  700.0000m   17.3948m  789.5840m 
 -482.57475m  106.9907m  700.0000m   17.5362m  789.4545m 
 -482.47475m  107.0026m  700.0000m   17.6777m  789.3249m 
 -482.37475m  107.0145m  700.0000m   17.8191m  789.1954m 
 -482.27475m  107.0265m  700.0000m   17.9605m  789.0659m 
 -482.17475m  107.0384m  700.0000m   18.1019m  788.9364m 
 -482.07475m  107.0503m  700.0000m   18.2433m  788.8070m 
 -481.97475m  107.0623m  700.0000m   18.3848m  788.6775m 
 -481.87475m  107.0742m  700.0000m   18.5262m  788.5480m 
 -481.77475m  107.0862m  700.0000m   18.6676m  788.4186m 
 -481.67475m  107.0982m  700.0000m   18.8090m  788.2891m 
 -481.57475m  107.1101m  700.0000m   18.9504m  788.1597m 
 -481.47475m  107.1221m  700.0000m   19.0919m  788.0302m 
 -481.37475m  107.1341m  700.0000m   19.2333m  787.9008m 
 -481.27475m  107.1461m  700.0000m   19.3747m  787.7714m 
 -481.17475m  107.1582m  700.0000m   19.5161m  787.6420m 
 -481.07475m  107.1702m  700.0000m   19.6576m  787.5126m 
 -480.97475m  107.1822m  700.0000m   19.7990m  787.3832m 
 -480.87475m  107.1943m  700.0000m   19.9404m  787.2538m 
 -480.77475m  107.2063m  700.0000m   20.0818m  787.1245m 
 -480.67475m  107.2184m  700.0000m   20.2232m  786.9951m 
 -480.57475m  107.2304m  700.0000m   20.3647m  786.8658m 
 -480.47475m  107.2425m  700.0000m   20.5061m  786.7364m 
 -480.37475m  107.2546m  700.0000m   20.6475m  786.6071m 
 -480.27475m  107.2667m  700.0000m   20.7889m  786.4777m 
 -480.17475m  107.2788m  700.0000m   20.9303m  786.3484m 
 -480.07475m  107.2909m  700.0000m   21.0718m  786.2191m 
 -479.97475m  107.3030m  700.0000m   21.2132m  786.0898m 
 -479.87475m  107.3152m  700.0000m   21.3546m  785.9605m 
 -479.77475m  107.3273m  700.0000m   21.4960m  785.8312m 
 -479.67475m  107.3394m  700.0000m   21.6375m  785.7020m 
 -479.57475m  107.3516m  700.0000m   21.7789m  785.5727m 
 -479.47475m  107.3638m  700.0000m   21.9203m  785.4435m 
 -479.37475m  107.3759m  700.0000m   22.0617m  785.3142m 
 -479.27475m  107.3881m  700.0000m   22.2031m  785.1850m 
 -479.17475m  107.4003m  700.0000m   22.3446m  785.0557m 
 -479.07475m  107.4125m  700.0000m   22.4860m  784.9265m 
 -478.97475m  107.4247m  700.0000m   22.6274m  784.7973m 
 -478.87475m  107.4369m  700.0000m   22.7688m  784.6681m 
 -478.77475m  107.4492m  700.0000m   22.9102m  784.5389m 
 -478.67475m  107.4614m  700.0000m   23.0517m  784.4097m 
 -478.57475m  107.4736m  700.0000m   23.1931m  784.2805m 
 -478.47475m  107.4859m  700.0000m   23.3345m  784.1514m 
 -478.37475m  107.4982m  700.0000m   23.4759m  784.0222m 
 -478.27475m  107.5104m  700.0000m   23.6173m  783.8931m 
 -478.17475m  107.5227m  700.0000m   23.7588m  783.7639m 
 -478.07475m  107.5350m  700.0000m   23.9002m  783.6348m 
 -477.97475m  107.5473m  700.0000m   24.0416m  783.5057m 
 -477.87475m  107.5596m  700.0000m   24.1830m  783.3766m 
 -477.77475m  107.5719m  700.0000m   24.3245m  783.2475m 
 -477.67475m  107.5843m  700.0000m   24.4659m  783.1184m 
 -477.57475m  107.5966m  700.0000m   24.6073m  782.9893m 
 -477.47475m  107.6089m  700.0000m   24.7487m  782.8602m 
 -477.37475m  107.6213m  700.0000m   24.8901m  782.7311m 
 -477.27475m  107.6336m  700.0000m   25.0316m  782.6021m 
 -477.17475m  107.6460m  700.0000m   25.1730m  782.4730m 
 -477.07475m  107.6584m  700.0000m   25.3144m  782.3440m 
 -476.97475m  107.6708m  700.0000m   25.4558m  782.2149m 
 -476.87475m  107.6832m  700.0000m   25.5972m  782.0859m 
 -476.77475m  107.6956m  700.0000m   25.7387m  781.9569m 
 -476.67475m  107.7080m  700.0000m   25.8801m  781.8279m 
 -476.57475m  107.7204m  700.0000m   26.0215m  781.6989m 
 -476.47475m  107.7329m  700.0000m   26.1629m  781.5699m 
 -476.37475m  107.7453m  700.0000m   26.3044m  781.4409m 
 -476.27475m  107.7578m  700.0000m   26.4458m  781.3120m 
 -476.17475m  107.7702m  700.0000m   26.5872m  781.1830m 
 -476.07475m  107.7827m  700.0000m   26.7286m  781.0541m 
 -475.97475m  107.7952m  700.0000m   26.8700m  780.9251m 
 -475.87475m  107.8077m  700.0000m   27.0115m  780.7962m 
 -475.77475m  107.8202m  700.0000m   27.1529m  780.6673m 
 -475.67475m  107.8327m  700.0000m   27.2943m  780.5383m 
 -475.57475m  107.8452m  700.0000m   27.4357m  780.4094m 
 -475.47475m  107.8577m  700.0000m   27.5771m  780.2805m 
 -475.37475m  107.8702m  700.0000m   27.7186m  780.1516m 
 -475.27475m  107.8828m  700.0000m   27.8600m  780.0228m 
 -475.17475m  107.8953m  700.0000m   28.0014m  779.8939m 
 -475.07475m  107.9079m  700.0000m   28.1428m  779.7650m 
 -474.97475m  107.9205m  700.0000m   28.2843m  779.6362m 
 -474.87475m  107.9330m  700.0000m   28.4257m  779.5073m 
 -474.77475m  107.9456m  700.0000m   28.5671m  779.3785m 
 -474.67475m  107.9582m  700.0000m   28.7085m  779.2497m 
 -474.57475m  107.9708m  700.0000m   28.8499m  779.1209m 
 -474.47475m  107.9835m  700.0000m   28.9914m  778.9921m 
 -474.37475m  107.9961m  700.0000m   29.1328m  778.8633m 
 -474.27475m  108.0087m  700.0000m   29.2742m  778.7345m 
 -474.17475m  108.0214m  700.0000m   29.4156m  778.6057m 
 -474.07475m  108.0340m  700.0000m   29.5570m  778.4770m 
 -473.97475m  108.0467m  700.0000m   29.6985m  778.3482m 
 -473.87475m  108.0594m  700.0000m   29.8399m  778.2194m 
 -473.77475m  108.0720m  700.0000m   29.9813m  778.0907m 
 -473.67475m  108.0847m  700.0000m   30.1227m  777.9620m 
 -473.57475m  108.0974m  700.0000m   30.2641m  777.8333m 
 -473.47475m  108.1101m  700.0000m   30.4056m  777.7045m 
 -473.37475m  108.1229m  700.0000m   30.5470m  777.5758m 
 -473.27475m  108.1356m  700.0000m   30.6884m  777.4471m 
 -473.17475m  108.1483m  700.0000m   30.8298m  777.3185m 
 -473.07475m  108.1611m  700.0000m   30.9713m  777.1898m 
 -472.97475m  108.1738m  700.0000m   31.1127m  777.0611m 
 -472.87475m  108.1866m  700.0000m   31.2541m  776.9325m 
 -472.77475m  108.1994m  700.0000m   31.3955m  776.8038m 
 -472.67475m  108.2121m  700.0000m   31.5369m  776.6752m 
 -472.57475m  108.2249m  700.0000m   31.6784m  776.5466m 
 -472.47475m  108.2377m  700.0000m   31.8198m  776.4179m 
 -472.37475m  108.2506m  700.0000m   31.9612m  776.2893m 
 -472.27475m  108.2634m  700.0000m   32.1026m  776.1607m 
 -472.17475m  108.2762m  700.0000m   32.2440m  776.0321m 
 -472.07475m  108.2891m  700.0000m   32.3855m  775.9036m 
 -471.97475m  108.3019m  700.0000m   32.5269m  775.7750m 
 -471.87475m  108.3148m  700.0000m   32.6683m  775.6464m 
 -471.77475m  108.3276m  700.0000m   32.8097m  775.5179m 
 -471.67475m  108.3405m  700.0000m   32.9512m  775.3893m 
 -471.57475m  108.3534m  700.0000m   33.0926m  775.2608m 
 -471.47475m  108.3663m  700.0000m   33.2340m  775.1323m 
 -471.37475m  108.3792m  700.0000m   33.3754m  775.0038m 
 -471.27475m  108.3921m  700.0000m   33.5168m  774.8753m 
 -471.17475m  108.4050m  700.0000m   33.6583m  774.7468m 
 -471.07475m  108.4180m  700.0000m   33.7997m  774.6183m 
 -470.97475m  108.4309m  700.0000m   33.9411m  774.4898m 
 -470.87475m  108.4439m  700.0000m   34.0825m  774.3613m 
 -470.77475m  108.4568m  700.0000m   34.2239m  774.2329m 
 -470.67475m  108.4698m  700.0000m   34.3654m  774.1044m 
 -470.57475m  108.4828m  700.0000m   34.5068m  773.9760m 
 -470.47475m  108.4958m  700.0000m   34.6482m  773.8476m 
 -470.37475m  108.5088m  700.0000m   34.7896m  773.7191m 
 -470.27475m  108.5218m  700.0000m   34.9310m  773.5907m 
 -470.17475m  108.5348m  700.0000m   35.0725m  773.4623m 
 -470.07475m  108.5479m  700.0000m   35.2139m  773.3340m 
 -469.97475m  108.5609m  700.0000m   35.3553m  773.2056m 
 -469.87475m  108.5740m  700.0000m   35.4967m  773.0772m 
 -469.77475m  108.5870m  700.0000m   35.6382m  772.9488m 
 -469.67475m  108.6001m  700.0000m   35.7796m  772.8205m 
 -469.57475m  108.6132m  700.0000m   35.9210m  772.6921m 
 -469.47475m  108.6263m  700.0000m   36.0624m  772.5638m 
 -469.37475m  108.6394m  700.0000m   36.2038m  772.4355m 
 -469.27475m  108.6525m  700.0000m   36.3453m  772.3072m 
 -469.17475m  108.6656m  700.0000m   36.4867m  772.1789m 
 -469.07475m  108.6787m  700.0000m   36.6281m  772.0506m 
 -468.97475m  108.6919m  700.0000m   36.7695m  771.9223m 
 -468.87475m  108.7050m  700.0000m   36.9109m  771.7940m 
 -468.77475m  108.7182m  700.0000m   37.0524m  771.6658m 
 -468.67475m  108.7313m  700.0000m   37.1938m  771.5375m 
 -468.57475m  108.7445m  700.0000m   37.3352m  771.4093m 
 -468.47475m  108.7577m  700.0000m   37.4766m  771.2810m 
 -468.37475m  108.7709m  700.0000m   37.6181m  771.1528m 
 -468.27475m  108.7841m  700.0000m   37.7595m  771.0246m 
 -468.17475m  108.7973m  700.0000m   37.9009m  770.8964m 
 -468.07475m  108.8105m  700.0000m   38.0423m  770.7682m 
 -467.97475m  108.8238m  700.0000m   38.1837m  770.6400m 
 -467.87475m  108.8370m  700.0000m   38.3252m  770.5118m 
 -467.77475m  108.8503m  700.0000m   38.4666m  770.3837m 
 -467.67475m  108.8635m  700.0000m   38.6080m  770.2555m 
 -467.57475m  108.8768m  700.0000m   38.7494m  770.1274m 
 -467.47475m  108.8901m  700.0000m   38.8908m  769.9992m 
 -467.37475m  108.9034m  700.0000m   39.0323m  769.8711m 
 -467.27475m  108.9167m  700.0000m   39.1737m  769.7430m 
 -467.17475m  108.9300m  700.0000m   39.3151m  769.6149m 
 -467.07475m  108.9433m  700.0000m   39.4565m  769.4868m 
 -466.97475m  108.9567m  700.0000m   39.5979m  769.3587m 
 -466.87475m  108.9700m  700.0000m   39.7394m  769.2306m 
 -466.77475m  108.9834m  700.0000m   39.8808m  769.1025m 
 -466.67475m  108.9967m  700.0000m   40.0222m  768.9745m 
 -466.57475m  109.0101m  700.0000m   40.1636m  768.8464m 
 -466.47475m  109.0235m  700.0000m   40.3051m  768.7184m 
 -466.37475m  109.0369m  700.0000m   40.4465m  768.5904m 
 -466.27475m  109.0503m  700.0000m   40.5879m  768.4623m 
 -466.17475m  109.0637m  700.0000m   40.7293m  768.3343m 
 -466.07475m  109.0771m  700.0000m   40.8707m  768.2063m 
 -465.97475m  109.0905m  700.0000m   41.0122m  768.0783m 
 -465.87475m  109.1040m  700.0000m   41.1536m  767.9504m 
 -465.77475m  109.1174m  700.0000m   41.2950m  767.8224m 
 -465.67475m  109.1309m  700.0000m   41.4364m  767.6944m 
 -465.57475m  109.1444m  700.0000m   41.5778m  767.5665m 
 -465.47475m  109.1579m  700.0000m   41.7193m  767.4386m 
 -465.37475m  109.1713m  700.0000m   41.8607m  767.3106m 
 -465.27475m  109.1848m  700.0000m   42.0021m  767.1827m 
 -465.17475m  109.1984m  700.0000m   42.1435m  767.0548m 
 -465.07475m  109.2119m  700.0000m   42.2850m  766.9269m 
 -464.97475m  109.2254m  700.0000m   42.4264m  766.7990m 
 -464.87475m  109.2390m  700.0000m   42.5678m  766.6711m 
 -464.77475m  109.2525m  700.0000m   42.7092m  766.5433m 
 -464.67475m  109.2661m  700.0000m   42.8506m  766.4154m 
 -464.57475m  109.2797m  700.0000m   42.9921m  766.2876m 
 -464.47475m  109.2932m  700.0000m   43.1335m  766.1597m 
 -464.37475m  109.3068m  700.0000m   43.2749m  766.0319m 
 -464.27475m  109.3204m  700.0000m   43.4163m  765.9041m 
 -464.17475m  109.3340m  700.0000m   43.5577m  765.7763m 
 -464.07475m  109.3477m  700.0000m   43.6992m  765.6485m 
 -463.97475m  109.3613m  700.0000m   43.8406m  765.5207m 
 -463.87475m  109.3749m  700.0000m   43.9820m  765.3929m 
 -463.77475m  109.3886m  700.0000m   44.1234m  765.2651m 
 -463.67475m  109.4023m  700.0000m   44.2648m  765.1374m 
 -463.57475m  109.4159m  700.0000m   44.4063m  765.0096m 
