 ****** HSPICE -- Q-2020.03-SP2-2 linux64 (Nov  1 2020) ******                  
  Copyright (c) 1986 - 2025 by Synopsys, Inc. All Rights Reserved.              
  This software and the associated documentation are proprietary
  to Synopsys, Inc. This software may only be used in accordance
  with the terms and conditions of a written license agreement with
  Synopsys, Inc. All other use, reproduction, or distribution of
  this software is strictly prohibited.
  Input File: SRAM_SNM_FF.sp                                                    
  Command line options: /RAID2/cad/synopsys/hspice/2020.03-sp2-2/hspice/linux64/hspice -i SRAM_SNM_FF.sp -o SRAM_SNM_FF.lis
  Start time: Sun Mar 23 13:40:36 2025
 lic:  
 lic: FLEXlm: SDK_12.6 
 lic: USER:   es25MCS042           HOSTNAME: ee28 
 lic: HOSTID: "d85ed3efc19a"       PID:      127493 
 lic: Using FLEXlm license file: 
 lic: 26585@lshc 
 lic: Checkout 1 hspice 
 lic: License/Maintenance for hspice will expire on 14-may-2025/2024.09 
 lic: 180(in_use)/1100(total) FLOATING license(s) on SERVER 26585@lshc 
 lic:   
  
      
             
 Warning:'Floating bulk' occurs 1 times
 Summary of floating bulk:
 -----------------------
 |Node      |Device    |
 |----------+----------|
 |x         |mpr       |
 -----------------------
              
 *****************************************************************
 ******  option summary
 ******
 runlvl  = 3         bypass  = 2.0000    
 ******
 .title noise margin in hold operation

 ****** dc transfer curves tnom=  25.000 temp=  25.000 ******
x

 volt         voltage    voltage    voltage    voltage   
             q          qb         gl         gr         
 -494.97475m   20.9270n  700.0000m  -18.8657n  700.0000m 
 -494.87475m   21.0045n  700.0000m  141.4024u  699.8586m 
 -494.77475m   21.0825n  700.0000m  282.8237u  699.7172m 
 -494.67475m   21.1610n  700.0000m  424.2450u  699.5758m 
 -494.57475m   21.2399n  700.0000m  565.6662u  699.4343m 
 -494.47475m   21.3193n  700.0000m  707.0875u  699.2929m 
 -494.37475m   21.3991n  700.0000m  848.5088u  699.1515m 
 -494.27475m   21.4793n  700.0000m  989.9300u  699.0101m 
 -494.17475m   21.5601n  700.0000m    1.1314m  698.8687m 
 -494.07475m   21.6413n  700.0000m    1.2728m  698.7272m 
 -493.97475m   21.7229n  700.0000m    1.4142m  698.5858m 
 -493.87475m   21.8050n  700.0000m    1.5556m  698.4444m 
 -493.77475m   21.8876n  700.0000m    1.6970m  698.3030m 
 -493.67475m   21.9707n  700.0000m    1.8385m  698.1615m 
 -493.57475m   22.0542n  700.0000m    1.9799m  698.0201m 
 -493.47475m   22.1383n  700.0000m    2.1213m  697.8787m 
 -493.37475m   22.2228n  700.0000m    2.2627m  697.7373m 
 -493.27475m   22.3078n  700.0000m    2.4041m  697.5959m 
 -493.17475m   22.3932n  700.0000m    2.5456m  697.4544m 
 -493.07475m   22.4792n  700.0000m    2.6870m  697.3130m 
 -492.97475m   22.5657n  700.0000m    2.8284m  697.1716m 
 -492.87475m   22.6526n  700.0000m    2.9698m  697.0302m 
 -492.77475m   22.7401n  700.0000m    3.1112m  696.8888m 
 -492.67475m   22.8280n  700.0000m    3.2527m  696.7473m 
 -492.57475m   22.9165n  700.0000m    3.3941m  696.6059m 
 -492.47475m   23.0055n  700.0000m    3.5355m  696.4645m 
 -492.37475m   23.0949n  700.0000m    3.6769m  696.3231m 
 -492.27475m   23.1849n  700.0000m    3.8184m  696.1816m 
 -492.17475m   23.2754n  700.0000m    3.9598m  696.0402m 
 -492.07475m   23.3664n  700.0000m    4.1012m  695.8988m 
 -491.97475m   23.4580n  700.0000m    4.2426m  695.7574m 
 -491.87475m   23.5501n  700.0000m    4.3840m  695.6160m 
 -491.77475m   23.6427n  700.0000m    4.5255m  695.4745m 
 -491.67475m   23.7358n  700.0000m    4.6669m  695.3331m 
 -491.57475m   23.8295n  700.0000m    4.8083m  695.1917m 
 -491.47475m   23.9237n  700.0000m    4.9497m  695.0503m 
 -491.37475m   24.0184n  700.0000m    5.0911m  694.9089m 
 -491.27475m   24.1137n  700.0000m    5.2326m  694.7674m 
 -491.17475m   24.2095n  700.0000m    5.3740m  694.6260m 
 -491.07475m   24.3059n  700.0000m    5.5154m  694.4846m 
 -490.97475m   24.4028n  700.0000m    5.6568m  694.3432m 
 -490.87475m   24.5003n  700.0000m    5.7983m  694.2017m 
 -490.77475m   24.5984n  700.0000m    5.9397m  694.0603m 
 -490.67475m   24.6970n  700.0000m    6.0811m  693.9189m 
 -490.57475m   24.7961n  700.0000m    6.2225m  693.7775m 
 -490.47475m   24.8959n  700.0000m    6.3639m  693.6361m 
 -490.37475m   24.9962n  700.0000m    6.5054m  693.4946m 
 -490.27475m   25.0971n  700.0000m    6.6468m  693.3532m 
 -490.17475m   25.1986n  700.0000m    6.7882m  693.2118m 
 -490.07475m   25.3006n  700.0000m    6.9296m  693.0704m 
 -489.97475m   25.4032n  700.0000m    7.0710m  692.9290m 
 -489.87475m   25.5065n  700.0000m    7.2125m  692.7875m 
 -489.77475m   25.6103n  700.0000m    7.3539m  692.6461m 
 -489.67475m   25.7147n  700.0000m    7.4953m  692.5047m 
 -489.57475m   25.8197n  700.0000m    7.6367m  692.3633m 
 -489.47475m   25.9253n  700.0000m    7.7782m  692.2219m 
 -489.37475m   26.0315n  700.0000m    7.9196m  692.0804m 
 -489.27475m   26.1383n  700.0000m    8.0610m  691.9390m 
 -489.17475m   26.2458n  700.0000m    8.2024m  691.7976m 
 -489.07475m   26.3538n  700.0000m    8.3438m  691.6562m 
 -488.97475m   26.4625n  700.0000m    8.4853m  691.5147m 
 -488.87475m   26.5718n  700.0000m    8.6267m  691.3733m 
 -488.77475m   26.6817n  700.0000m    8.7681m  691.2319m 
 -488.67475m   26.7923n  700.0000m    8.9095m  691.0905m 
 -488.57475m   26.9035n  700.0000m    9.0509m  690.9491m 
 -488.47475m   27.0153n  700.0000m    9.1924m  690.8076m 
 -488.37475m   27.1278n  700.0000m    9.3338m  690.6662m 
 -488.27475m   27.2409n  700.0000m    9.4752m  690.5248m 
 -488.17475m   27.3546n  700.0000m    9.6166m  690.3834m 
 -488.07475m   27.4690n  700.0000m    9.7580m  690.2420m 
 -487.97475m   27.5841n  700.0000m    9.8995m  690.1005m 
 -487.87475m   27.6998n  700.0000m   10.0409m  689.9591m 
 -487.77475m   27.8162n  700.0000m   10.1823m  689.8177m 
 -487.67475m   27.9333n  700.0000m   10.3237m  689.6763m 
 -487.57475m   28.0510n  700.0000m   10.4652m  689.5348m 
 -487.47475m   28.1694n  700.0000m   10.6066m  689.3934m 
 -487.37475m   28.2885n  700.0000m   10.7480m  689.2520m 
 -487.27475m   28.4083n  700.0000m   10.8894m  689.1106m 
 -487.17475m   28.5287n  700.0000m   11.0308m  688.9692m 
 -487.07475m   28.6499n  700.0000m   11.1723m  688.8277m 
 -486.97475m   28.7717n  700.0000m   11.3137m  688.6863m 
 -486.87475m   28.8942n  700.0000m   11.4551m  688.5449m 
 -486.77475m   29.0175n  700.0000m   11.5965m  688.4035m 
 -486.67475m   29.1414n  700.0000m   11.7379m  688.2621m 
 -486.57475m   29.2661n  700.0000m   11.8794m  688.1206m 
 -486.47475m   29.3915n  700.0000m   12.0208m  687.9792m 
 -486.37475m   29.5176n  700.0000m   12.1622m  687.8378m 
 -486.27475m   29.6444n  700.0000m   12.3036m  687.6964m 
 -486.17475m   29.7719n  700.0000m   12.4451m  687.5550m 
 -486.07475m   29.9002n  700.0000m   12.5865m  687.4135m 
 -485.97475m   30.0292n  700.0000m   12.7279m  687.2721m 
 -485.87475m   30.1590n  700.0000m   12.8693m  687.1307m 
 -485.77475m   30.2894n  700.0000m   13.0107m  686.9893m 
 -485.67475m   30.4207n  700.0000m   13.1522m  686.8478m 
 -485.57475m   30.5527n  700.0000m   13.2936m  686.7064m 
 -485.47475m   30.6854n  700.0000m   13.4350m  686.5650m 
 -485.37475m   30.8190n  700.0000m   13.5764m  686.4236m 
 -485.27475m   30.9532n  700.0000m   13.7178m  686.2822m 
 -485.17475m   31.0883n  700.0000m   13.8593m  686.1407m 
 -485.07475m   31.2241n  700.0000m   14.0007m  685.9993m 
 -484.97475m   31.3607n  700.0000m   14.1421m  685.8579m 
 -484.87475m   31.4981n  700.0000m   14.2835m  685.7165m 
 -484.77475m   31.6363n  700.0000m   14.4249m  685.5751m 
 -484.67475m   31.7753n  700.0000m   14.5664m  685.4336m 
 -484.57475m   31.9150n  700.0000m   14.7078m  685.2922m 
 -484.47475m   32.0556n  700.0000m   14.8492m  685.1508m 
 -484.37475m   32.1970n  700.0000m   14.9906m  685.0094m 
 -484.27475m   32.3391n  700.0000m   15.1321m  684.8679m 
 -484.17475m   32.4821n  700.0000m   15.2735m  684.7265m 
 -484.07475m   32.6260n  700.0000m   15.4149m  684.5851m 
 -483.97475m   32.7706n  700.0000m   15.5563m  684.4437m 
 -483.87475m   32.9161n  700.0000m   15.6977m  684.3023m 
 -483.77475m   33.0624n  700.0000m   15.8392m  684.1608m 
 -483.67475m   33.2096n  700.0000m   15.9806m  684.0194m 
 -483.57475m   33.3576n  700.0000m   16.1220m  683.8780m 
 -483.47475m   33.5064n  700.0000m   16.2634m  683.7366m 
 -483.37475m   33.6561n  700.0000m   16.4048m  683.5952m 
 -483.27475m   33.8067n  700.0000m   16.5463m  683.4537m 
 -483.17475m   33.9581n  700.0000m   16.6877m  683.3123m 
 -483.07475m   34.1104n  700.0000m   16.8291m  683.1709m 
 -482.97475m   34.2635n  700.0000m   16.9705m  683.0295m 
 -482.87475m   34.4176n  700.0000m   17.1120m  682.8881m 
 -482.77475m   34.5725n  700.0000m   17.2534m  682.7466m 
 -482.67475m   34.7283n  700.0000m   17.3948m  682.6052m 
 -482.57475m   34.8851n  700.0000m   17.5362m  682.4638m 
 -482.47475m   35.0427n  700.0000m   17.6776m  682.3224m 
 -482.37475m   35.2012n  700.0000m   17.8191m  682.1809m 
 -482.27475m   35.3606n  700.0000m   17.9605m  682.0395m 
 -482.17475m   35.5210n  700.0000m   18.1019m  681.8981m 
 -482.07475m   35.6822n  700.0000m   18.2433m  681.7567m 
 -481.97475m   35.8444n  700.0000m   18.3847m  681.6153m 
 -481.87475m   36.0075n  700.0000m   18.5262m  681.4738m 
 -481.77475m   36.1716n  700.0000m   18.6676m  681.3324m 
 -481.67475m   36.3366n  700.0000m   18.8090m  681.1910m 
 -481.57475m   36.5025n  700.0000m   18.9504m  681.0496m 
 -481.47475m   36.6694n  700.0000m   19.0918m  680.9082m 
 -481.37475m   36.8373n  700.0000m   19.2333m  680.7667m 
 -481.27475m   37.0061n  700.0000m   19.3747m  680.6253m 
 -481.17475m   37.1759n  700.0000m   19.5161m  680.4839m 
 -481.07475m   37.3467n  700.0000m   19.6575m  680.3425m 
 -480.97475m   37.5184n  700.0000m   19.7990m  680.2010m 
 -480.87475m   37.6911n  700.0000m   19.9404m  680.0596m 
 -480.77475m   37.8648n  700.0000m   20.0818m  679.9182m 
 -480.67475m   38.0396n  700.0000m   20.2232m  679.7768m 
 -480.57475m   38.2153n  700.0000m   20.3646m  679.6354m 
 -480.47475m   38.3920n  700.0000m   20.5061m  679.4939m 
 -480.37475m   38.5698n  700.0000m   20.6475m  679.3525m 
 -480.27475m   38.7485n  700.0000m   20.7889m  679.2111m 
 -480.17475m   38.9283n  700.0000m   20.9303m  679.0697m 
 -480.07475m   39.1092n  700.0000m   21.0717m  678.9283m 
 -479.97475m   39.2910n  700.0000m   21.2132m  678.7868m 
 -479.87475m   39.4739n  700.0000m   21.3546m  678.6454m 
 -479.77475m   39.6579n  700.0000m   21.4960m  678.5040m 
 -479.67475m   39.8429n  700.0000m   21.6374m  678.3626m 
 -479.57475m   40.0290n  700.0000m   21.7789m  678.2212m 
 -479.47475m   40.2162n  700.0000m   21.9203m  678.0797m 
 -479.37475m   40.4044n  700.0000m   22.0617m  677.9383m 
 -479.27475m   40.5937n  700.0000m   22.2031m  677.7969m 
 -479.17475m   40.7841n  700.0000m   22.3445m  677.6555m 
 -479.07475m   40.9756n  700.0000m   22.4860m  677.5140m 
 -478.97475m   41.1682n  700.0000m   22.6274m  677.3726m 
 -478.87475m   41.3619n  700.0000m   22.7688m  677.2312m 
 -478.77475m   41.5567n  700.0000m   22.9102m  677.0898m 
 -478.67475m   41.7526n  700.0000m   23.0516m  676.9484m 
 -478.57475m   41.9497n  700.0000m   23.1931m  676.8069m 
 -478.47475m   42.1478n  700.0000m   23.3345m  676.6655m 
 -478.37475m   42.3472n  700.0000m   23.4759m  676.5241m 
 -478.27475m   42.5476n  700.0000m   23.6173m  676.3827m 
 -478.17475m   42.7493n  700.0000m   23.7587m  676.2413m 
 -478.07475m   42.9520n  700.0000m   23.9002m  676.0998m 
 -477.97475m   43.1560n  700.0000m   24.0416m  675.9584m 
 -477.87475m   43.3611n  700.0000m   24.1830m  675.8170m 
 -477.77475m   43.5674n  700.0000m   24.3244m  675.6756m 
 -477.67475m   43.7749n  700.0000m   24.4659m  675.5341m 
 -477.57475m   43.9836n  700.0000m   24.6073m  675.3927m 
 -477.47475m   44.1934n  700.0000m   24.7487m  675.2513m 
 -477.37475m   44.4045n  700.0000m   24.8901m  675.1099m 
 -477.27475m   44.6168n  700.0000m   25.0315m  674.9685m 
 -477.17475m   44.8303n  700.0000m   25.1730m  674.8270m 
 -477.07475m   45.0451n  700.0000m   25.3144m  674.6856m 
 -476.97475m   45.2610n  700.0000m   25.4558m  674.5442m 
 -476.87475m   45.4783n  700.0000m   25.5972m  674.4028m 
 -476.77475m   45.6967n  700.0000m   25.7386m  674.2614m 
 -476.67475m   45.9165n  700.0000m   25.8801m  674.1199m 
 -476.57475m   46.1374n  700.0000m   26.0215m  673.9785m 
 -476.47475m   46.3597n  700.0000m   26.1629m  673.8371m 
 -476.37475m   46.5832n  700.0000m   26.3043m  673.6957m 
 -476.27475m   46.8081n  700.0000m   26.4457m  673.5543m 
 -476.17475m   47.0342n  700.0000m   26.5872m  673.4128m 
 -476.07475m   47.2616n  700.0000m   26.7286m  673.2714m 
 -475.97475m   47.4903n  700.0000m   26.8700m  673.1300m 
 -475.87475m   47.7203n  700.0000m   27.0114m  672.9886m 
 -475.77475m   47.9517n  700.0000m   27.1529m  672.8471m 
 -475.67475m   48.1844n  700.0000m   27.2943m  672.7057m 
 -475.57475m   48.4184n  700.0000m   27.4357m  672.5643m 
 -475.47475m   48.6538n  700.0000m   27.5771m  672.4229m 
 -475.37475m   48.8905n  700.0000m   27.7185m  672.2815m 
 -475.27475m   49.1286n  700.0000m   27.8600m  672.1400m 
 -475.17475m   49.3681n  700.0000m   28.0014m  671.9986m 
 -475.07475m   49.6089n  700.0000m   28.1428m  671.8572m 
 -474.97475m   49.8512n  700.0000m   28.2842m  671.7158m 
 -474.87475m   50.0948n  700.0000m   28.4256m  671.5744m 
 -474.77475m   50.3398n  700.0000m   28.5671m  671.4329m 
 -474.67475m   50.5862n  700.0000m   28.7085m  671.2915m 
 -474.57475m   50.8341n  700.0000m   28.8499m  671.1501m 
 -474.47475m   51.0833n  699.9999m   28.9913m  671.0087m 
 -474.37475m   51.3340n  699.9999m   29.1327m  670.8673m 
 -474.27475m   51.5862n  699.9999m   29.2742m  670.7258m 
 -474.17475m   51.8398n  699.9999m   29.4156m  670.5844m 
 -474.07475m   52.0949n  699.9999m   29.5570m  670.4430m 
 -473.97475m   52.3514n  699.9999m   29.6984m  670.3016m 
 -473.87475m   52.6094n  699.9999m   29.8399m  670.1601m 
 -473.77475m   52.8689n  699.9999m   29.9813m  670.0187m 
 -473.67475m   53.1299n  699.9999m   30.1227m  669.8773m 
 -473.57475m   53.3924n  699.9999m   30.2641m  669.7359m 
 -473.47475m   53.6564n  699.9999m   30.4055m  669.5945m 
 -473.37475m   53.9219n  699.9999m   30.5470m  669.4530m 
 -473.27475m   54.1889n  699.9999m   30.6884m  669.3116m 
 -473.17475m   54.4575n  699.9999m   30.8298m  669.1702m 
 -473.07475m   54.7276n  699.9999m   30.9712m  669.0288m 
 -472.97475m   54.9993n  699.9999m   31.1126m  668.8874m 
 -472.87475m   55.2726n  699.9999m   31.2541m  668.7459m 
 -472.77475m   55.5474n  699.9999m   31.3955m  668.6045m 
 -472.67475m   55.8238n  699.9999m   31.5369m  668.4631m 
 -472.57475m   56.1018n  699.9999m   31.6783m  668.3217m 
 -472.47475m   56.3814n  699.9999m   31.8197m  668.1803m 
 -472.37475m   56.6626n  699.9999m   31.9612m  668.0388m 
 -472.27475m   56.9454n  699.9999m   32.1026m  667.8974m 
 -472.17475m   57.2299n  699.9999m   32.2440m  667.7560m 
 -472.07475m   57.5160n  699.9999m   32.3854m  667.6146m 
 -471.97475m   57.8037n  699.9999m   32.5269m  667.4731m 
 -471.87475m   58.0931n  699.9999m   32.6683m  667.3317m 
 -471.77475m   58.3842n  699.9999m   32.8097m  667.1903m 
 -471.67475m   58.6769n  699.9999m   32.9511m  667.0489m 
 -471.57475m   58.9713n  699.9999m   33.0925m  666.9075m 
 -471.47475m   59.2674n  699.9999m   33.2340m  666.7660m 
 -471.37475m   59.5653n  699.9999m   33.3754m  666.6246m 
 -471.27475m   59.8648n  699.9999m   33.5168m  666.4832m 
 -471.17475m   60.1661n  699.9999m   33.6582m  666.3418m 
 -471.07475m   60.4691n  699.9999m   33.7996m  666.2004m 
 -470.97475m   60.7738n  699.9999m   33.9411m  666.0589m 
 -470.87475m   61.0804n  699.9999m   34.0825m  665.9175m 
 -470.77475m   61.3886n  699.9999m   34.2239m  665.7761m 
 -470.67475m   61.6987n  699.9999m   34.3653m  665.6347m 
 -470.57475m   62.0105n  699.9999m   34.5067m  665.4933m 
 -470.47475m   62.3242n  699.9999m   34.6482m  665.3518m 
 -470.37475m   62.6396n  699.9999m   34.7896m  665.2104m 
 -470.27475m   62.9569n  699.9999m   34.9310m  665.0690m 
 -470.17475m   63.2759n  699.9999m   35.0724m  664.9276m 
 -470.07475m   63.5969n  699.9999m   35.2139m  664.7861m 
 -469.97475m   63.9196n  699.9999m   35.3553m  664.6447m 
 -469.87475m   64.2443n  699.9999m   35.4967m  664.5033m 
 -469.77475m   64.5708n  699.9999m   35.6381m  664.3619m 
 -469.67475m   64.8992n  699.9999m   35.7795m  664.2205m 
 -469.57475m   65.2295n  699.9999m   35.9210m  664.0790m 
 -469.47475m   65.5617n  699.9999m   36.0624m  663.9376m 
 -469.37475m   65.8958n  699.9999m   36.2038m  663.7962m 
 -469.27475m   66.2318n  699.9999m   36.3452m  663.6548m 
 -469.17475m   66.5698n  699.9999m   36.4866m  663.5134m 
 -469.07475m   66.9097n  699.9999m   36.6281m  663.3719m 
 -468.97475m   67.2516n  699.9999m   36.7695m  663.2305m 
 -468.87475m   67.5954n  699.9999m   36.9109m  663.0891m 
 -468.77475m   67.9412n  699.9999m   37.0523m  662.9477m 
 -468.67475m   68.2891n  699.9999m   37.1937m  662.8063m 
 -468.57475m   68.6389n  699.9999m   37.3352m  662.6648m 
 -468.47475m   68.9907n  699.9999m   37.4766m  662.5234m 
 -468.37475m   69.3446n  699.9999m   37.6180m  662.3820m 
 -468.27475m   69.7005n  699.9999m   37.7594m  662.2406m 
 -468.17475m   70.0585n  699.9999m   37.9009m  662.0991m 
 -468.07475m   70.4186n  699.9999m   38.0423m  661.9577m 
 -467.97475m   70.7807n  699.9999m   38.1837m  661.8163m 
 -467.87475m   71.1449n  699.9999m   38.3251m  661.6749m 
 -467.77475m   71.5112n  699.9999m   38.4665m  661.5335m 
 -467.67475m   71.8796n  699.9999m   38.6080m  661.3920m 
 -467.57475m   72.2501n  699.9999m   38.7494m  661.2506m 
 -467.47475m   72.6228n  699.9999m   38.8908m  661.1092m 
 -467.37475m   72.9977n  699.9999m   39.0322m  660.9678m 
 -467.27475m   73.3747n  699.9999m   39.1736m  660.8264m 
 -467.17475m   73.7538n  699.9999m   39.3151m  660.6849m 
 -467.07475m   74.1352n  699.9999m   39.4565m  660.5435m 
 -466.97475m   74.5188n  699.9999m   39.5979m  660.4021m 
 -466.87475m   74.9045n  699.9999m   39.7393m  660.2607m 
 -466.77475m   75.2925n  699.9999m   39.8807m  660.1193m 
 -466.67475m   75.6828n  699.9999m   40.0222m  659.9778m 
 -466.57475m   76.0753n  699.9999m   40.1636m  659.8364m 
 -466.47475m   76.4700n  699.9999m   40.3050m  659.6950m 
 -466.37475m   76.8671n  699.9999m   40.4464m  659.5536m 
 -466.27475m   77.2664n  699.9999m   40.5879m  659.4121m 
 -466.17475m   77.6680n  699.9999m   40.7293m  659.2707m 
 -466.07475m   78.0720n  699.9999m   40.8707m  659.1293m 
 -465.97475m   78.4783n  699.9999m   41.0121m  658.9879m 
 -465.87475m   78.8869n  699.9999m   41.1535m  658.8465m 
 -465.77475m   79.2979n  699.9999m   41.2950m  658.7050m 
 -465.67475m   79.7113n  699.9999m   41.4364m  658.5636m 
 -465.57475m   80.1270n  699.9999m   41.5778m  658.4222m 
 -465.47475m   80.5452n  699.9999m   41.7192m  658.2808m 
 -465.37475m   80.9657n  699.9999m   41.8606m  658.1394m 
 -465.27475m   81.3887n  699.9999m   42.0021m  657.9979m 
 -465.17475m   81.8142n  699.9999m   42.1435m  657.8565m 
 -465.07475m   82.2421n  699.9999m   42.2849m  657.7151m 
 -464.97475m   82.6725n  699.9999m   42.4263m  657.5737m 
 -464.87475m   83.1053n  699.9999m   42.5677m  657.4323m 
 -464.77475m   83.5407n  699.9999m   42.7092m  657.2908m 
 -464.67475m   83.9785n  699.9999m   42.8506m  657.1494m 
 -464.57475m   84.4189n  699.9999m   42.9920m  657.0080m 
 -464.47475m   84.8619n  699.9999m   43.1334m  656.8666m 
 -464.37475m   85.3074n  699.9999m   43.2748m  656.7252m 
 -464.27475m   85.7555n  699.9999m   43.4163m  656.5837m 
 -464.17475m   86.2062n  699.9999m   43.5577m  656.4423m 
 -464.07475m   86.6594n  699.9999m   43.6991m  656.3009m 
 -463.97475m   87.1153n  699.9999m   43.8405m  656.1595m 
 -463.87475m   87.5739n  699.9999m   43.9820m  656.0180m 
 -463.77475m   88.0350n  699.9999m   44.1234m  655.8766m 
 -463.67475m   88.4989n  699.9999m   44.2648m  655.7352m 
 -463.57475m   88.9654n  699.9999m   44.4062m  655.5938m 
