 ****** HSPICE -- Q-2020.03-SP2-2 linux64 (Nov  1 2020) ******                  
  Copyright (c) 1986 - 2025 by Synopsys, Inc. All Rights Reserved.              
  This software and the associated documentation are proprietary
  to Synopsys, Inc. This software may only be used in accordance
  with the terms and conditions of a written license agreement with
  Synopsys, Inc. All other use, reproduction, or distribution of
  this software is strictly prohibited.
  Input File: SRAM_SNM_SS.sp                                                    
  Command line options: /RAID2/cad/synopsys/hspice/2020.03-sp2-2/hspice/linux64/hspice -i SRAM_SNM_SS.sp -o SRAM_SNM_SS.lis
  Start time: Sun Mar 23 13:18:09 2025
 lic:  
 lic: FLEXlm: SDK_12.6 
 lic: USER:   es25MCS042           HOSTNAME: ee28 
 lic: HOSTID: "d85ed3efc19a"       PID:      109968 
 lic: Using FLEXlm license file: 
 lic: 26585@lshc 
 lic: Checkout 1 hspice 
 lic: License/Maintenance for hspice will expire on 14-may-2025/2024.09 
 lic: 180(in_use)/1100(total) FLOATING license(s) on SERVER 26585@lshc 
 lic:   
  
      
             
 Warning:'Floating bulk' occurs 1 times
 Summary of floating bulk:
 -----------------------
 |Node      |Device    |
 |----------+----------|
 |x         |mpr       |
 -----------------------
              
 *****************************************************************
 ******  option summary
 ******
 runlvl  = 3         bypass  = 2.0000    
 ******
 .title noise margin in hold operation

 ****** dc transfer curves tnom=  25.000 temp=  25.000 ******
x

 volt         voltage    voltage    voltage    voltage   
             q          qb         gl         gr         
 -494.97475m   28.4484n  700.0000m   -7.9117n  700.0000m 
 -494.87475m   28.5786n  700.0000m  141.4134u  699.8586m 
 -494.77475m   28.7096n  700.0000m  282.8347u  699.7172m 
 -494.67475m   28.8414n  700.0000m  424.2561u  699.5758m 
 -494.57475m   28.9739n  700.0000m  565.6774u  699.4343m 
 -494.47475m   29.1072n  700.0000m  707.0987u  699.2929m 
 -494.37475m   29.2412n  700.0000m  848.5201u  699.1515m 
 -494.27475m   29.3761n  700.0000m  989.9414u  699.0101m 
 -494.17475m   29.5117n  700.0000m    1.1314m  698.8687m 
 -494.07475m   29.6481n  700.0000m    1.2728m  698.7272m 
 -493.97475m   29.7853n  700.0000m    1.4142m  698.5858m 
 -493.87475m   29.9233n  700.0000m    1.5556m  698.4444m 
 -493.77475m   30.0621n  700.0000m    1.6970m  698.3030m 
 -493.67475m   30.2017n  700.0000m    1.8385m  698.1616m 
 -493.57475m   30.3421n  700.0000m    1.9799m  698.0201m 
 -493.47475m   30.4833n  700.0000m    2.1213m  697.8787m 
 -493.37475m   30.6254n  700.0000m    2.2627m  697.7373m 
 -493.27475m   30.7682n  700.0000m    2.4042m  697.5959m 
 -493.17475m   30.9120n  700.0000m    2.5456m  697.4544m 
 -493.07475m   31.0565n  700.0000m    2.6870m  697.3130m 
 -492.97475m   31.2019n  700.0000m    2.8284m  697.1716m 
 -492.87475m   31.3481n  700.0000m    2.9698m  697.0302m 
 -492.77475m   31.4951n  700.0000m    3.1113m  696.8888m 
 -492.67475m   31.6431n  700.0000m    3.2527m  696.7473m 
 -492.57475m   31.7918n  700.0000m    3.3941m  696.6059m 
 -492.47475m   31.9415n  700.0000m    3.5355m  696.4645m 
 -492.37475m   32.0920n  700.0000m    3.6769m  696.3231m 
 -492.27475m   32.2434n  700.0000m    3.8184m  696.1817m 
 -492.17475m   32.3957n  700.0000m    3.9598m  696.0402m 
 -492.07475m   32.5488n  700.0000m    4.1012m  695.8988m 
 -491.97475m   32.7028n  700.0000m    4.2426m  695.7574m 
 -491.87475m   32.8578n  700.0000m    4.3841m  695.6160m 
 -491.77475m   33.0136n  700.0000m    4.5255m  695.4745m 
 -491.67475m   33.1703n  700.0000m    4.6669m  695.3331m 
 -491.57475m   33.3280n  700.0000m    4.8083m  695.1917m 
 -491.47475m   33.4865n  700.0000m    4.9497m  695.0503m 
 -491.37475m   33.6460n  700.0000m    5.0912m  694.9089m 
 -491.27475m   33.8064n  700.0000m    5.2326m  694.7674m 
 -491.17475m   33.9678n  700.0000m    5.3740m  694.6260m 
 -491.07475m   34.1300n  700.0000m    5.5154m  694.4846m 
 -490.97475m   34.2933n  700.0000m    5.6568m  694.3432m 
 -490.87475m   34.4574n  700.0000m    5.7983m  694.2018m 
 -490.77475m   34.6225n  700.0000m    5.9397m  694.0603m 
 -490.67475m   34.7886n  700.0000m    6.0811m  693.9189m 
 -490.57475m   34.9556n  700.0000m    6.2225m  693.7775m 
 -490.47475m   35.1237n  700.0000m    6.3640m  693.6361m 
 -490.37475m   35.2926n  700.0000m    6.5054m  693.4947m 
 -490.27475m   35.4626n  700.0000m    6.6468m  693.3532m 
 -490.17475m   35.6335n  700.0000m    6.7882m  693.2118m 
 -490.07475m   35.8055n  700.0000m    6.9296m  693.0704m 
 -489.97475m   35.9784n  700.0000m    7.0711m  692.9290m 
 -489.87475m   36.1524n  700.0000m    7.2125m  692.7875m 
 -489.77475m   36.3273n  700.0000m    7.3539m  692.6461m 
 -489.67475m   36.5033n  700.0000m    7.4953m  692.5047m 
 -489.57475m   36.6803n  700.0000m    7.6367m  692.3633m 
 -489.47475m   36.8583n  700.0000m    7.7782m  692.2219m 
 -489.37475m   37.0373n  700.0000m    7.9196m  692.0804m 
 -489.27475m   37.2174n  700.0000m    8.0610m  691.9390m 
 -489.17475m   37.3986n  700.0000m    8.2024m  691.7976m 
 -489.07475m   37.5808n  700.0000m    8.3439m  691.6562m 
 -488.97475m   37.7640n  700.0000m    8.4853m  691.5148m 
 -488.87475m   37.9483n  700.0000m    8.6267m  691.3733m 
 -488.77475m   38.1337n  700.0000m    8.7681m  691.2319m 
 -488.67475m   38.3201n  700.0000m    8.9095m  691.0905m 
 -488.57475m   38.5077n  700.0000m    9.0510m  690.9491m 
 -488.47475m   38.6963n  700.0000m    9.1924m  690.8077m 
 -488.37475m   38.8860n  700.0000m    9.3338m  690.6662m 
 -488.27475m   39.0768n  700.0000m    9.4752m  690.5248m 
 -488.17475m   39.2688n  700.0000m    9.6166m  690.3834m 
 -488.07475m   39.4618n  700.0000m    9.7581m  690.2420m 
 -487.97475m   39.6560n  700.0000m    9.8995m  690.1005m 
 -487.87475m   39.8512n  700.0000m   10.0409m  689.9591m 
 -487.77475m   40.0477n  700.0000m   10.1823m  689.8177m 
 -487.67475m   40.2452n  700.0000m   10.3237m  689.6763m 
 -487.57475m   40.4439n  700.0000m   10.4652m  689.5349m 
 -487.47475m   40.6438n  700.0000m   10.6066m  689.3934m 
 -487.37475m   40.8448n  700.0000m   10.7480m  689.2520m 
 -487.27475m   41.0470n  700.0000m   10.8894m  689.1106m 
 -487.17475m   41.2504n  700.0000m   11.0309m  688.9692m 
 -487.07475m   41.4549n  700.0000m   11.1723m  688.8278m 
 -486.97475m   41.6606n  700.0000m   11.3137m  688.6863m 
 -486.87475m   41.8676n  700.0000m   11.4551m  688.5449m 
 -486.77475m   42.0757n  700.0000m   11.5965m  688.4035m 
 -486.67475m   42.2850n  700.0000m   11.7380m  688.2621m 
 -486.57475m   42.4956n  700.0000m   11.8794m  688.1206m 
 -486.47475m   42.7073n  700.0000m   12.0208m  687.9792m 
 -486.37475m   42.9203n  700.0000m   12.1622m  687.8378m 
 -486.27475m   43.1346n  700.0000m   12.3036m  687.6964m 
 -486.17475m   43.3500n  700.0000m   12.4451m  687.5550m 
 -486.07475m   43.5668n  700.0000m   12.5865m  687.4135m 
 -485.97475m   43.7848n  700.0000m   12.7279m  687.2721m 
 -485.87475m   44.0040n  700.0000m   12.8693m  687.1307m 
 -485.77475m   44.2245n  700.0000m   13.0108m  686.9893m 
 -485.67475m   44.4463n  700.0000m   13.1522m  686.8479m 
 -485.57475m   44.6694n  700.0000m   13.2936m  686.7064m 
 -485.47475m   44.8938n  700.0000m   13.4350m  686.5650m 
 -485.37475m   45.1195n  700.0000m   13.5764m  686.4236m 
 -485.27475m   45.3465n  700.0000m   13.7179m  686.2822m 
 -485.17475m   45.5748n  700.0000m   13.8593m  686.1408m 
 -485.07475m   45.8045n  700.0000m   14.0007m  685.9993m 
 -484.97475m   46.0355n  700.0000m   14.1421m  685.8579m 
 -484.87475m   46.2678n  700.0000m   14.2835m  685.7165m 
 -484.77475m   46.5015n  700.0000m   14.4250m  685.5751m 
 -484.67475m   46.7365n  700.0000m   14.5664m  685.4336m 
 -484.57475m   46.9729n  700.0000m   14.7078m  685.2922m 
 -484.47475m   47.2106n  700.0000m   14.8492m  685.1508m 
 -484.37475m   47.4498n  700.0000m   14.9907m  685.0094m 
 -484.27475m   47.6903n  700.0000m   15.1321m  684.8680m 
 -484.17475m   47.9322n  700.0000m   15.2735m  684.7265m 
 -484.07475m   48.1756n  700.0000m   15.4149m  684.5851m 
 -483.97475m   48.4203n  700.0000m   15.5563m  684.4437m 
 -483.87475m   48.6665n  700.0000m   15.6978m  684.3023m 
 -483.77475m   48.9141n  700.0000m   15.8392m  684.1609m 
 -483.67475m   49.1631n  700.0000m   15.9806m  684.0194m 
 -483.57475m   49.4136n  700.0000m   16.1220m  683.8780m 
 -483.47475m   49.6655n  700.0000m   16.2634m  683.7366m 
 -483.37475m   49.9189n  700.0000m   16.4049m  683.5952m 
 -483.27475m   50.1738n  700.0000m   16.5463m  683.4538m 
 -483.17475m   50.4301n  700.0000m   16.6877m  683.3123m 
 -483.07475m   50.6880n  700.0000m   16.8291m  683.1709m 
 -482.97475m   50.9473n  700.0000m   16.9706m  683.0295m 
 -482.87475m   51.2082n  700.0000m   17.1120m  682.8881m 
 -482.77475m   51.4705n  700.0000m   17.2534m  682.7466m 
 -482.67475m   51.7344n  700.0000m   17.3948m  682.6052m 
 -482.57475m   51.9998n  700.0000m   17.5362m  682.4638m 
 -482.47475m   52.2668n  700.0000m   17.6777m  682.3224m 
 -482.37475m   52.5353n  700.0000m   17.8191m  682.1810m 
 -482.27475m   52.8053n  700.0000m   17.9605m  682.0395m 
 -482.17475m   53.0770n  700.0000m   18.1019m  681.8981m 
 -482.07475m   53.3502n  700.0000m   18.2433m  681.7567m 
 -481.97475m   53.6250n  700.0000m   18.3848m  681.6153m 
 -481.87475m   53.9014n  700.0000m   18.5262m  681.4739m 
 -481.77475m   54.1793n  700.0000m   18.6676m  681.3324m 
 -481.67475m   54.4590n  700.0000m   18.8090m  681.1910m 
 -481.57475m   54.7402n  700.0000m   18.9504m  681.0496m 
 -481.47475m   55.0231n  700.0000m   19.0919m  680.9082m 
 -481.37475m   55.3076n  700.0000m   19.2333m  680.7668m 
 -481.27475m   55.5938n  700.0000m   19.3747m  680.6253m 
 -481.17475m   55.8816n  700.0000m   19.5161m  680.4839m 
 -481.07475m   56.1711n  700.0000m   19.6576m  680.3425m 
 -480.97475m   56.4623n  700.0000m   19.7990m  680.2011m 
 -480.87475m   56.7551n  700.0000m   19.9404m  680.0596m 
 -480.77475m   57.0497n  700.0000m   20.0818m  679.9182m 
 -480.67475m   57.3460n  700.0000m   20.2232m  679.7768m 
 -480.57475m   57.6440n  700.0000m   20.3647m  679.6354m 
 -480.47475m   57.9438n  700.0000m   20.5061m  679.4940m 
 -480.37475m   58.2452n  700.0000m   20.6475m  679.3525m 
 -480.27475m   58.5485n  700.0000m   20.7889m  679.2111m 
 -480.17475m   58.8535n  700.0000m   20.9303m  679.0697m 
 -480.07475m   59.1603n  700.0000m   21.0718m  678.9283m 
 -479.97475m   59.4688n  700.0000m   21.2132m  678.7869m 
 -479.87475m   59.7792n  700.0000m   21.3546m  678.6454m 
 -479.77475m   60.0913n  700.0000m   21.4960m  678.5040m 
 -479.67475m   60.4053n  700.0000m   21.6375m  678.3626m 
 -479.57475m   60.7211n  700.0000m   21.7789m  678.2212m 
 -479.47475m   61.0387n  700.0000m   21.9203m  678.0798m 
 -479.37475m   61.3581n  700.0000m   22.0617m  677.9383m 
 -479.27475m   61.6795n  700.0000m   22.2031m  677.7969m 
 -479.17475m   62.0027n  700.0000m   22.3446m  677.6555m 
 -479.07475m   62.3277n  700.0000m   22.4860m  677.5141m 
 -478.97475m   62.6547n  700.0000m   22.6274m  677.3726m 
 -478.87475m   62.9836n  700.0000m   22.7688m  677.2312m 
 -478.77475m   63.3143n  700.0000m   22.9102m  677.0898m 
 -478.67475m   63.6470n  700.0000m   23.0517m  676.9484m 
 -478.57475m   63.9817n  700.0000m   23.1931m  676.8070m 
 -478.47475m   64.3182n  700.0000m   23.3345m  676.6655m 
 -478.37475m   64.6568n  700.0000m   23.4759m  676.5241m 
 -478.27475m   64.9973n  700.0000m   23.6174m  676.3827m 
 -478.17475m   65.3398n  700.0000m   23.7588m  676.2413m 
 -478.07475m   65.6842n  700.0000m   23.9002m  676.0999m 
 -477.97475m   66.0307n  700.0000m   24.0416m  675.9584m 
 -477.87475m   66.3792n  700.0000m   24.1830m  675.8170m 
 -477.77475m   66.7297n  700.0000m   24.3245m  675.6756m 
 -477.67475m   67.0823n  700.0000m   24.4659m  675.5342m 
 -477.57475m   67.4369n  700.0000m   24.6073m  675.3928m 
 -477.47475m   67.7935n  700.0000m   24.7487m  675.2513m 
 -477.37475m   68.1523n  700.0000m   24.8901m  675.1099m 
 -477.27475m   68.5131n  700.0000m   25.0316m  674.9685m 
 -477.17475m   68.8760n  700.0000m   25.1730m  674.8271m 
 -477.07475m   69.2411n  700.0000m   25.3144m  674.6856m 
 -476.97475m   69.6082n  700.0000m   25.4558m  674.5442m 
 -476.87475m   69.9775n  700.0000m   25.5972m  674.4028m 
 -476.77475m   70.3489n  700.0000m   25.7387m  674.2614m 
 -476.67475m   70.7225n  700.0000m   25.8801m  674.1200m 
 -476.57475m   71.0983n  700.0000m   26.0215m  673.9785m 
 -476.47475m   71.4763n  700.0000m   26.1629m  673.8371m 
 -476.37475m   71.8564n  700.0000m   26.3044m  673.6957m 
 -476.27475m   72.2388n  700.0000m   26.4458m  673.5543m 
 -476.17475m   72.6234n  700.0000m   26.5872m  673.4129m 
 -476.07475m   73.0102n  700.0000m   26.7286m  673.2714m 
 -475.97475m   73.3993n  700.0000m   26.8700m  673.1300m 
 -475.87475m   73.7907n  700.0000m   27.0115m  672.9886m 
 -475.77475m   74.1843n  700.0000m   27.1529m  672.8472m 
 -475.67475m   74.5802n  700.0000m   27.2943m  672.7058m 
 -475.57475m   74.9784n  700.0000m   27.4357m  672.5643m 
 -475.47475m   75.3789n  700.0000m   27.5771m  672.4229m 
 -475.37475m   75.7818n  700.0000m   27.7186m  672.2815m 
 -475.27475m   76.1870n  700.0000m   27.8600m  672.1401m 
 -475.17475m   76.5946n  700.0000m   28.0014m  671.9986m 
 -475.07475m   77.0045n  700.0000m   28.1428m  671.8572m 
 -474.97475m   77.4168n  700.0000m   28.2843m  671.7158m 
 -474.87475m   77.8316n  700.0000m   28.4257m  671.5744m 
 -474.77475m   78.2487n  700.0000m   28.5671m  671.4330m 
 -474.67475m   78.6683n  700.0000m   28.7085m  671.2915m 
 -474.57475m   79.0903n  700.0000m   28.8499m  671.1501m 
 -474.47475m   79.5147n  700.0000m   28.9914m  671.0087m 
 -474.37475m   79.9417n  700.0000m   29.1328m  670.8673m 
 -474.27475m   80.3711n  700.0000m   29.2742m  670.7259m 
 -474.17475m   80.8030n  700.0000m   29.4156m  670.5844m 
 -474.07475m   81.2374n  700.0000m   29.5570m  670.4430m 
 -473.97475m   81.6744n  700.0000m   29.6985m  670.3016m 
 -473.87475m   82.1139n  700.0000m   29.8399m  670.1602m 
 -473.77475m   82.5560n  700.0000m   29.9813m  670.0188m 
 -473.67475m   83.0006n  700.0000m   30.1227m  669.8773m 
 -473.57475m   83.4478n  700.0000m   30.2642m  669.7359m 
 -473.47475m   83.8977n  700.0000m   30.4056m  669.5945m 
 -473.37475m   84.3501n  700.0000m   30.5470m  669.4531m 
 -473.27475m   84.8052n  700.0000m   30.6884m  669.3117m 
 -473.17475m   85.2629n  700.0000m   30.8298m  669.1702m 
 -473.07475m   85.7233n  700.0000m   30.9713m  669.0288m 
 -472.97475m   86.1864n  700.0000m   31.1127m  668.8874m 
 -472.87475m   86.6522n  700.0000m   31.2541m  668.7460m 
 -472.77475m   87.1207n  700.0000m   31.3955m  668.6045m 
 -472.67475m   87.5919n  700.0000m   31.5369m  668.4631m 
 -472.57475m   88.0659n  700.0000m   31.6784m  668.3217m 
 -472.47475m   88.5426n  700.0000m   31.8198m  668.1803m 
 -472.37475m   89.0221n  700.0000m   31.9612m  668.0389m 
 -472.27475m   89.5044n  700.0000m   32.1026m  667.8974m 
 -472.17475m   89.9895n  700.0000m   32.2440m  667.7560m 
 -472.07475m   90.4774n  700.0000m   32.3855m  667.6146m 
 -471.97475m   90.9682n  700.0000m   32.5269m  667.4732m 
 -471.87475m   91.4618n  700.0000m   32.6683m  667.3318m 
 -471.77475m   91.9583n  700.0000m   32.8097m  667.1903m 
 -471.67475m   92.4577n  700.0000m   32.9512m  667.0489m 
 -471.57475m   92.9600n  700.0000m   33.0926m  666.9075m 
 -471.47475m   93.4652n  700.0000m   33.2340m  666.7661m 
 -471.37475m   93.9734n  700.0000m   33.3754m  666.6247m 
 -471.27475m   94.4846n  700.0000m   33.5168m  666.4832m 
 -471.17475m   94.9987n  700.0000m   33.6583m  666.3418m 
 -471.07475m   95.5158n  700.0000m   33.7997m  666.2004m 
 -470.97475m   96.0359n  700.0000m   33.9411m  666.0590m 
 -470.87475m   96.5591n  700.0000m   34.0825m  665.9175m 
 -470.77475m   97.0853n  700.0000m   34.2239m  665.7761m 
 -470.67475m   97.6146n  700.0000m   34.3654m  665.6347m 
 -470.57475m   98.1469n  700.0000m   34.5068m  665.4933m 
 -470.47475m   98.6824n  700.0000m   34.6482m  665.3519m 
 -470.37475m   99.2210n  700.0000m   34.7896m  665.2104m 
 -470.27475m   99.7627n  700.0000m   34.9311m  665.0690m 
 -470.17475m  100.3076n  700.0000m   35.0725m  664.9276m 
 -470.07475m  100.8556n  700.0000m   35.2139m  664.7862m 
 -469.97475m  101.4069n  700.0000m   35.3553m  664.6448m 
 -469.87475m  101.9614n  700.0000m   35.4967m  664.5033m 
 -469.77475m  102.5191n  700.0000m   35.6382m  664.3619m 
 -469.67475m  103.0800n  700.0000m   35.7796m  664.2205m 
 -469.57475m  103.6442n  700.0000m   35.9210m  664.0791m 
 -469.47475m  104.2118n  700.0000m   36.0624m  663.9377m 
 -469.37475m  104.7826n  700.0000m   36.2038m  663.7962m 
 -469.27475m  105.3567n  700.0000m   36.3453m  663.6548m 
 -469.17475m  105.9342n  700.0000m   36.4867m  663.5134m 
 -469.07475m  106.5151n  700.0000m   36.6281m  663.3720m 
 -468.97475m  107.0993n  700.0000m   36.7695m  663.2306m 
 -468.87475m  107.6870n  700.0000m   36.9110m  663.0891m 
 -468.77475m  108.2781n  700.0000m   37.0524m  662.9477m 
 -468.67475m  108.8726n  700.0000m   37.1938m  662.8063m 
 -468.57475m  109.4706n  700.0000m   37.3352m  662.6649m 
 -468.47475m  110.0721n  700.0000m   37.4766m  662.5235m 
 -468.37475m  110.6771n  700.0000m   37.6181m  662.3820m 
 -468.27475m  111.2857n  700.0000m   37.7595m  662.2406m 
 -468.17475m  111.8978n  700.0000m   37.9009m  662.0992m 
 -468.07475m  112.5134n  700.0000m   38.0423m  661.9578m 
 -467.97475m  113.1327n  700.0000m   38.1837m  661.8163m 
 -467.87475m  113.7555n  700.0000m   38.3252m  661.6749m 
 -467.77475m  114.3820n  700.0000m   38.4666m  661.5335m 
 -467.67475m  115.0122n  700.0000m   38.6080m  661.3921m 
 -467.57475m  115.6460n  700.0000m   38.7494m  661.2507m 
 -467.47475m  116.2835n  700.0000m   38.8908m  661.1092m 
 -467.37475m  116.9248n  700.0000m   39.0323m  660.9678m 
 -467.27475m  117.5698n  700.0000m   39.1737m  660.8264m 
 -467.17475m  118.2185n  700.0000m   39.3151m  660.6850m 
 -467.07475m  118.8711n  700.0000m   39.4565m  660.5436m 
 -466.97475m  119.5274n  700.0000m   39.5980m  660.4021m 
 -466.87475m  120.1876n  700.0000m   39.7394m  660.2607m 
 -466.77475m  120.8517n  700.0000m   39.8808m  660.1193m 
 -466.67475m  121.5196n  700.0000m   40.0222m  659.9779m 
 -466.57475m  122.1914n  700.0000m   40.1636m  659.8365m 
 -466.47475m  122.8671n  700.0000m   40.3051m  659.6950m 
 -466.37475m  123.5468n  700.0000m   40.4465m  659.5536m 
 -466.27475m  124.2304n  700.0000m   40.5879m  659.4122m 
 -466.17475m  124.9181n  700.0000m   40.7293m  659.2708m 
 -466.07475m  125.6097n  700.0000m   40.8707m  659.1294m 
 -465.97475m  126.3054n  700.0000m   41.0122m  658.9879m 
 -465.87475m  127.0052n  700.0000m   41.1536m  658.8465m 
 -465.77475m  127.7090n  700.0000m   41.2950m  658.7051m 
 -465.67475m  128.4170n  700.0000m   41.4364m  658.5637m 
 -465.57475m  129.1291n  700.0000m   41.5779m  658.4223m 
 -465.47475m  129.8453n  700.0000m   41.7193m  658.2808m 
 -465.37475m  130.5658n  700.0000m   41.8607m  658.1394m 
 -465.27475m  131.2904n  700.0000m   42.0021m  657.9980m 
 -465.17475m  132.0193n  700.0000m   42.1435m  657.8566m 
 -465.07475m  132.7524n  700.0000m   42.2850m  657.7151m 
 -464.97475m  133.4899n  700.0000m   42.4264m  657.5737m 
 -464.87475m  134.2316n  700.0000m   42.5678m  657.4323m 
 -464.77475m  134.9776n  700.0000m   42.7092m  657.2909m 
 -464.67475m  135.7281n  700.0000m   42.8506m  657.1495m 
 -464.57475m  136.4829n  700.0000m   42.9921m  657.0080m 
 -464.47475m  137.2421n  700.0000m   43.1335m  656.8666m 
 -464.37475m  138.0057n  700.0000m   43.2749m  656.7252m 
 -464.27475m  138.7739n  700.0000m   43.4163m  656.5838m 
 -464.17475m  139.5465n  700.0000m   43.5577m  656.4424m 
 -464.07475m  140.3236n  700.0000m   43.6992m  656.3009m 
 -463.97475m  141.1052n  700.0000m   43.8406m  656.1595m 
 -463.87475m  141.8915n  700.0000m   43.9820m  656.0181m 
 -463.77475m  142.6823n  700.0000m   44.1234m  655.8767m 
 -463.67475m  143.4778n  700.0000m   44.2649m  655.7353m 
 -463.57475m  144.2779n  700.0000m   44.4063m  655.5938m 
