 ****** HSPICE -- Q-2020.03-SP2-2 linux64 (Nov  1 2020) ******                  
  Copyright (c) 1986 - 2025 by Synopsys, Inc. All Rights Reserved.              
  This software and the associated documentation are proprietary
  to Synopsys, Inc. This software may only be used in accordance
  with the terms and conditions of a written license agreement with
  Synopsys, Inc. All other use, reproduction, or distribution of
  this software is strictly prohibited.
  Input File: SRAM_SNM_TT.sp                                                    
  Command line options: /RAID2/cad/synopsys/hspice/2020.03-sp2-2/hspice/linux64/hspice -i SRAM_SNM_TT.sp -o SRAM_SNM_TT.lis
  Start time: Wed Mar 19 22:04:07 2025
 lic:  
 lic: FLEXlm: SDK_12.6 
 lic: USER:   es25MCS042           HOSTNAME: ee28 
 lic: HOSTID: "d85ed3efc19a"       PID:      78840 
 lic: Using FLEXlm license file: 
 lic: 26585@lshc 
 lic: Checkout 1 hspice 
 lic: License/Maintenance for hspice will expire on 14-may-2025/2024.09 
 lic: 210(in_use)/1100(total) FLOATING license(s) on SERVER 26585@lshc 
 lic:   
  
      
             
 Warning:'Floating bulk' occurs 1 times
 Summary of floating bulk:
 -----------------------
 |Node      |Device    |
 |----------+----------|
 |x         |mpr       |
 -----------------------
              
 *****************************************************************
 ******  option summary
 ******
 runlvl  = 3         bypass  = 2.0000    
 ******
 .title noise margin in hold operation

 ****** dc transfer curves tnom=  25.000 temp=  25.000 ******
x

 volt         voltage    voltage    voltage    voltage   
             q          qb         gr         gl         
 -707.10678m   22.1047n  700.0000m    1.0000  -300.0000m 
 -707.00678m   22.0921n  700.0000m  999.8586m -299.8586m 
 -706.90678m   22.0794n  700.0000m  999.7172m -299.7172m 
 -706.80678m   22.0668n  700.0000m  999.5758m -299.5757m 
 -706.70678m   22.0542n  700.0000m  999.4343m -299.4343m 
 -706.60678m   22.0416n  700.0000m  999.2929m -299.2929m 
 -706.50678m   22.0290n  700.0000m  999.1515m -299.1515m 
 -706.40678m   22.0164n  700.0000m  999.0101m -299.0101m 
 -706.30678m   22.0038n  700.0000m  998.8687m -298.8686m 
 -706.20678m   21.9912n  700.0000m  998.7272m -298.7272m 
 -706.10678m   21.9786n  700.0000m  998.5858m -298.5858m 
 -706.00678m   21.9660n  700.0000m  998.4444m -298.4444m 
 -705.90678m   21.9534n  700.0000m  998.3030m -298.3030m 
 -705.80678m   21.9408n  700.0000m  998.1615m -298.1615m 
 -705.70678m   21.9282n  700.0000m  998.0201m -298.0201m 
 -705.60678m   21.9156n  700.0000m  997.8787m -297.8787m 
 -705.50678m   21.9030n  700.0000m  997.7373m -297.7373m 
 -705.40678m   21.8905n  700.0000m  997.5959m -297.5958m 
 -705.30678m   21.8779n  700.0000m  997.4544m -297.4544m 
 -705.20678m   21.8653n  700.0000m  997.3130m -297.3130m 
 -705.10678m   21.8527n  700.0000m  997.1716m -297.1716m 
 -705.00678m   21.8402n  700.0000m  997.0302m -297.0302m 
 -704.90678m   21.8276n  700.0000m  996.8888m -296.8887m 
 -704.80678m   21.8150n  700.0000m  996.7473m -296.7473m 
 -704.70678m   21.8025n  700.0000m  996.6059m -296.6059m 
 -704.60678m   21.7899n  700.0000m  996.4645m -296.4645m 
 -704.50678m   21.7774n  700.0000m  996.3231m -296.3231m 
 -704.40678m   21.7648n  700.0000m  996.1816m -296.1816m 
 -704.30678m   21.7523n  700.0000m  996.0402m -296.0402m 
 -704.20678m   21.7397n  700.0000m  995.8988m -295.8988m 
 -704.10678m   21.7272n  700.0000m  995.7574m -295.7574m 
 -704.00678m   21.7146n  700.0000m  995.6160m -295.6159m 
 -703.90678m   21.7021n  700.0000m  995.4745m -295.4745m 
 -703.80678m   21.6896n  700.0000m  995.3331m -295.3331m 
 -703.70678m   21.6770n  700.0000m  995.1917m -295.1917m 
 -703.60678m   21.6645n  700.0000m  995.0503m -295.0503m 
 -703.50678m   21.6520n  700.0000m  994.9089m -294.9088m 
 -703.40678m   21.6395n  700.0000m  994.7674m -294.7674m 
 -703.30678m   21.6269n  700.0000m  994.6260m -294.6260m 
 -703.20678m   21.6144n  700.0000m  994.4846m -294.4846m 
 -703.10678m   21.6019n  700.0000m  994.3432m -294.3432m 
 -703.00678m   21.5894n  700.0000m  994.2017m -294.2017m 
 -702.90678m   21.5769n  700.0000m  994.0603m -294.0603m 
 -702.80678m   21.5644n  700.0000m  993.9189m -293.9189m 
 -702.70678m   21.5519n  700.0000m  993.7775m -293.7775m 
 -702.60678m   21.5394n  700.0000m  993.6361m -293.6360m 
 -702.50678m   21.5269n  700.0000m  993.4946m -293.4946m 
 -702.40678m   21.5144n  700.0000m  993.3532m -293.3532m 
 -702.30678m   21.5019n  700.0000m  993.2118m -293.2118m 
 -702.20678m   21.4894n  700.0000m  993.0704m -293.0704m 
 -702.10678m   21.4769n  700.0000m  992.9290m -292.9289m 
 -702.00678m   21.4644n  700.0000m  992.7875m -292.7875m 
 -701.90678m   21.4519n  700.0000m  992.6461m -292.6461m 
 -701.80678m   21.4394n  700.0000m  992.5047m -292.5047m 
 -701.70678m   21.4270n  700.0000m  992.3633m -292.3633m 
 -701.60678m   21.4145n  700.0000m  992.2218m -292.2218m 
 -701.50678m   21.4020n  700.0000m  992.0804m -292.0804m 
 -701.40678m   21.3895n  700.0000m  991.9390m -291.9390m 
 -701.30678m   21.3771n  700.0000m  991.7976m -291.7976m 
 -701.20678m   21.3646n  700.0000m  991.6562m -291.6562m 
 -701.10678m   21.3521n  700.0000m  991.5147m -291.5147m 
 -701.00678m   21.3397n  700.0000m  991.3733m -291.3733m 
 -700.90678m   21.3272n  700.0000m  991.2319m -291.2319m 
 -700.80678m   21.3148n  700.0000m  991.0905m -291.0905m 
 -700.70678m   21.3023n  700.0000m  990.9491m -290.9490m 
 -700.60678m   21.2899n  700.0000m  990.8076m -290.8076m 
 -700.50678m   21.2774n  700.0000m  990.6662m -290.6662m 
 -700.40678m   21.2650n  700.0000m  990.5248m -290.5248m 
 -700.30678m   21.2525n  700.0000m  990.3834m -290.3834m 
 -700.20678m   21.2401n  700.0000m  990.2419m -290.2419m 
 -700.10678m   21.2277n  700.0000m  990.1005m -290.1005m 
 -700.00678m   21.2152n  700.0000m  989.9591m -289.9591m 
 -699.90678m   21.2028n  700.0000m  989.8177m -289.8177m 
 -699.80678m   21.1904n  700.0000m  989.6763m -289.6763m 
 -699.70678m   21.1779n  700.0000m  989.5348m -289.5348m 
 -699.60678m   21.1655n  700.0000m  989.3934m -289.3934m 
 -699.50678m   21.1531n  700.0000m  989.2520m -289.2520m 
 -699.40678m   21.1407n  700.0000m  989.1106m -289.1106m 
 -699.30678m   21.1283n  700.0000m  988.9692m -288.9691m 
 -699.20678m   21.1159n  700.0000m  988.8277m -288.8277m 
 -699.10678m   21.1034n  700.0000m  988.6863m -288.6863m 
 -699.00678m   21.0910n  700.0000m  988.5449m -288.5449m 
 -698.90678m   21.0786n  700.0000m  988.4035m -288.4035m 
 -698.80678m   21.0662n  700.0000m  988.2620m -288.2620m 
 -698.70678m   21.0538n  700.0000m  988.1206m -288.1206m 
 -698.60678m   21.0414n  700.0000m  987.9792m -287.9792m 
 -698.50678m   21.0290n  700.0000m  987.8378m -287.8378m 
 -698.40678m   21.0166n  700.0000m  987.6964m -287.6964m 
 -698.30678m   21.0043n  700.0000m  987.5549m -287.5549m 
 -698.20678m   20.9919n  700.0000m  987.4135m -287.4135m 
 -698.10678m   20.9795n  700.0000m  987.2721m -287.2721m 
 -698.00678m   20.9671n  700.0000m  987.1307m -287.1307m 
 -697.90678m   20.9547n  700.0000m  986.9893m -286.9892m 
 -697.80678m   20.9423n  700.0000m  986.8478m -286.8478m 
 -697.70678m   20.9300n  700.0000m  986.7064m -286.7064m 
 -697.60678m   20.9176n  700.0000m  986.5650m -286.5650m 
 -697.50678m   20.9052n  700.0000m  986.4236m -286.4236m 
 -697.40678m   20.8928n  700.0000m  986.2821m -286.2821m 
 -697.30678m   20.8805n  700.0000m  986.1407m -286.1407m 
 -697.20678m   20.8681n  700.0000m  985.9993m -285.9993m 
 -697.10678m   20.8558n  700.0000m  985.8579m -285.8579m 
 -697.00678m   20.8434n  700.0000m  985.7165m -285.7165m 
 -696.90678m   20.8310n  700.0000m  985.5750m -285.5750m 
 -696.80678m   20.8187n  700.0000m  985.4336m -285.4336m 
 -696.70678m   20.8063n  700.0000m  985.2922m -285.2922m 
 -696.60678m   20.7940n  700.0000m  985.1508m -285.1508m 
 -696.50678m   20.7816n  700.0000m  985.0094m -285.0093m 
 -696.40678m   20.7693n  700.0000m  984.8679m -284.8679m 
 -696.30678m   20.7570n  700.0000m  984.7265m -284.7265m 
 -696.20678m   20.7446n  700.0000m  984.5851m -284.5851m 
 -696.10678m   20.7323n  700.0000m  984.4437m -284.4437m 
 -696.00678m   20.7199n  700.0000m  984.3023m -284.3022m 
 -695.90678m   20.7076n  700.0000m  984.1608m -284.1608m 
 -695.80678m   20.6953n  700.0000m  984.0194m -284.0194m 
 -695.70678m   20.6830n  700.0000m  983.8780m -283.8780m 
 -695.60678m   20.6706n  700.0000m  983.7366m -283.7366m 
 -695.50678m   20.6583n  700.0000m  983.5951m -283.5951m 
 -695.40678m   20.6460n  700.0000m  983.4537m -283.4537m 
 -695.30678m   20.6337n  700.0000m  983.3123m -283.3123m 
 -695.20678m   20.6214n  700.0000m  983.1709m -283.1709m 
 -695.10678m   20.6090n  700.0000m  983.0295m -283.0294m 
 -695.00678m   20.5967n  700.0000m  982.8880m -282.8880m 
 -694.90678m   20.5844n  700.0000m  982.7466m -282.7466m 
 -694.80678m   20.5721n  700.0000m  982.6052m -282.6052m 
 -694.70678m   20.5598n  700.0000m  982.4638m -282.4638m 
 -694.60678m   20.5475n  700.0000m  982.3224m -282.3223m 
 -694.50678m   20.5352n  700.0000m  982.1809m -282.1809m 
 -694.40678m   20.5229n  700.0000m  982.0395m -282.0395m 
 -694.30678m   20.5106n  700.0000m  981.8981m -281.8981m 
 -694.20678m   20.4983n  700.0000m  981.7567m -281.7567m 
 -694.10678m   20.4860n  700.0000m  981.6152m -281.6152m 
 -694.00678m   20.4737n  700.0000m  981.4738m -281.4738m 
 -693.90678m   20.4615n  700.0000m  981.3324m -281.3324m 
 -693.80678m   20.4492n  700.0000m  981.1910m -281.1910m 
 -693.70678m   20.4369n  700.0000m  981.0496m -281.0495m 
 -693.60678m   20.4246n  700.0000m  980.9081m -280.9081m 
 -693.50678m   20.4123n  700.0000m  980.7667m -280.7667m 
 -693.40678m   20.4001n  700.0000m  980.6253m -280.6253m 
 -693.30678m   20.3878n  700.0000m  980.4839m -280.4839m 
 -693.20678m   20.3755n  700.0000m  980.3425m -280.3424m 
 -693.10678m   20.3633n  700.0000m  980.2010m -280.2010m 
 -693.00678m   20.3510n  700.0000m  980.0596m -280.0596m 
 -692.90678m   20.3387n  700.0000m  979.9182m -279.9182m 
 -692.80678m   20.3265n  700.0000m  979.7768m -279.7768m 
 -692.70678m   20.3142n  700.0000m  979.6353m -279.6353m 
 -692.60678m   20.3020n  700.0000m  979.4939m -279.4939m 
 -692.50678m   20.2897n  700.0000m  979.3525m -279.3525m 
 -692.40678m   20.2775n  700.0000m  979.2111m -279.2111m 
 -692.30678m   20.2652n  700.0000m  979.0697m -279.0696m 
 -692.20678m   20.2530n  700.0000m  978.9282m -278.9282m 
 -692.10678m   20.2407n  700.0000m  978.7868m -278.7868m 
 -692.00678m   20.2285n  700.0000m  978.6454m -278.6454m 
 -691.90678m   20.2162n  700.0000m  978.5040m -278.5040m 
 -691.80678m   20.2040n  700.0000m  978.3626m -278.3625m 
 -691.70678m   20.1918n  700.0000m  978.2211m -278.2211m 
 -691.60678m   20.1795n  700.0000m  978.0797m -278.0797m 
 -691.50678m   20.1673n  700.0000m  977.9383m -277.9383m 
 -691.40678m   20.1551n  700.0000m  977.7969m -277.7969m 
 -691.30678m   20.1428n  700.0000m  977.6554m -277.6554m 
 -691.20678m   20.1306n  700.0000m  977.5140m -277.5140m 
 -691.10678m   20.1184n  700.0000m  977.3726m -277.3726m 
 -691.00678m   20.1062n  700.0000m  977.2312m -277.2312m 
 -690.90678m   20.0939n  700.0000m  977.0898m -277.0898m 
 -690.80678m   20.0817n  700.0000m  976.9483m -276.9483m 
 -690.70678m   20.0695n  700.0000m  976.8069m -276.8069m 
 -690.60678m   20.0573n  700.0000m  976.6655m -276.6655m 
 -690.50678m   20.0451n  700.0000m  976.5241m -276.5241m 
 -690.40678m   20.0329n  700.0000m  976.3827m -276.3826m 
 -690.30678m   20.0207n  700.0000m  976.2412m -276.2412m 
 -690.20678m   20.0085n  700.0000m  976.0998m -276.0998m 
 -690.10678m   19.9963n  700.0000m  975.9584m -275.9584m 
 -690.00678m   19.9841n  700.0000m  975.8170m -275.8170m 
 -689.90678m   19.9719n  700.0000m  975.6755m -275.6755m 
 -689.80678m   19.9597n  700.0000m  975.5341m -275.5341m 
 -689.70678m   19.9475n  700.0000m  975.3927m -275.3927m 
 -689.60678m   19.9353n  700.0000m  975.2513m -275.2513m 
 -689.50678m   19.9231n  700.0000m  975.1099m -275.1099m 
 -689.40678m   19.9109n  700.0000m  974.9684m -274.9684m 
 -689.30678m   19.8987n  700.0000m  974.8270m -274.8270m 
 -689.20678m   19.8866n  700.0000m  974.6856m -274.6856m 
 -689.10678m   19.8744n  700.0000m  974.5442m -274.5442m 
 -689.00678m   19.8622n  700.0000m  974.4028m -274.4027m 
 -688.90678m   19.8500n  700.0000m  974.2613m -274.2613m 
 -688.80678m   19.8379n  700.0000m  974.1199m -274.1199m 
 -688.70678m   19.8257n  700.0000m  973.9785m -273.9785m 
 -688.60678m   19.8135n  700.0000m  973.8371m -273.8371m 
 -688.50678m   19.8013n  700.0000m  973.6956m -273.6956m 
 -688.40678m   19.7892n  700.0000m  973.5542m -273.5542m 
 -688.30678m   19.7770n  700.0000m  973.4128m -273.4128m 
 -688.20678m   19.7649n  700.0000m  973.2714m -273.2714m 
 -688.10678m   19.7527n  700.0000m  973.1300m -273.1300m 
 -688.00678m   19.7405n  700.0000m  972.9885m -272.9885m 
 -687.90678m   19.7284n  700.0000m  972.8471m -272.8471m 
 -687.80678m   19.7162n  700.0000m  972.7057m -272.7057m 
 -687.70678m   19.7041n  700.0000m  972.5643m -272.5643m 
 -687.60678m   19.6919n  700.0000m  972.4229m -272.4228m 
 -687.50678m   19.6798n  700.0000m  972.2814m -272.2814m 
 -687.40678m   19.6676n  700.0000m  972.1400m -272.1400m 
 -687.30678m   19.6555n  700.0000m  971.9986m -271.9986m 
 -687.20678m   19.6433n  700.0000m  971.8572m -271.8572m 
 -687.10678m   19.6312n  700.0000m  971.7157m -271.7157m 
 -687.00678m   19.6191n  700.0000m  971.5743m -271.5743m 
 -686.90678m   19.6069n  700.0000m  971.4329m -271.4329m 
 -686.80678m   19.5948n  700.0000m  971.2915m -271.2915m 
 -686.70678m   19.5827n  700.0000m  971.1501m -271.1501m 
 -686.60678m   19.5705n  700.0000m  971.0086m -271.0086m 
 -686.50678m   19.5584n  700.0000m  970.8672m -270.8672m 
 -686.40678m   19.5463n  700.0000m  970.7258m -270.7258m 
 -686.30678m   19.5342n  700.0000m  970.5844m -270.5844m 
 -686.20678m   19.5220n  700.0000m  970.4430m -270.4429m 
 -686.10678m   19.5099n  700.0000m  970.3015m -270.3015m 
 -686.00678m   19.4978n  700.0000m  970.1601m -270.1601m 
 -685.90678m   19.4857n  700.0000m  970.0187m -270.0187m 
 -685.80678m   19.4736n  700.0000m  969.8773m -269.8773m 
 -685.70678m   19.4615n  700.0000m  969.7358m -269.7358m 
 -685.60678m   19.4494n  700.0000m  969.5944m -269.5944m 
 -685.50678m   19.4373n  700.0000m  969.4530m -269.4530m 
 -685.40678m   19.4251n  700.0000m  969.3116m -269.3116m 
 -685.30678m   19.4130n  700.0000m  969.1702m -269.1702m 
 -685.20678m   19.4009n  700.0000m  969.0287m -269.0287m 
 -685.10678m   19.3888n  700.0000m  968.8873m -268.8873m 
 -685.00678m   19.3767n  700.0000m  968.7459m -268.7459m 
 -684.90678m   19.3646n  700.0000m  968.6045m -268.6045m 
 -684.80678m   19.3526n  700.0000m  968.4631m -268.4630m 
 -684.70678m   19.3405n  700.0000m  968.3216m -268.3216m 
 -684.60678m   19.3284n  700.0000m  968.1802m -268.1802m 
 -684.50678m   19.3163n  700.0000m  968.0388m -268.0388m 
 -684.40678m   19.3042n  700.0000m  967.8974m -267.8974m 
 -684.30678m   19.2921n  700.0000m  967.7560m -267.7559m 
 -684.20678m   19.2800n  700.0000m  967.6145m -267.6145m 
 -684.10678m   19.2679n  700.0000m  967.4731m -267.4731m 
 -684.00678m   19.2559n  700.0000m  967.3317m -267.3317m 
 -683.90678m   19.2438n  700.0000m  967.1903m -267.1903m 
 -683.80678m   19.2317n  700.0000m  967.0488m -267.0488m 
 -683.70678m   19.2196n  700.0000m  966.9074m -266.9074m 
 -683.60678m   19.2076n  700.0000m  966.7660m -266.7660m 
 -683.50678m   19.1955n  700.0000m  966.6246m -266.6246m 
 -683.40678m   19.1834n  700.0000m  966.4832m -266.4831m 
 -683.30678m   19.1714n  700.0000m  966.3417m -266.3417m 
 -683.20678m   19.1593n  700.0000m  966.2003m -266.2003m 
 -683.10678m   19.1472n  700.0000m  966.0589m -266.0589m 
 -683.00678m   19.1352n  700.0000m  965.9175m -265.9175m 
 -682.90678m   19.1231n  700.0000m  965.7761m -265.7760m 
 -682.80678m   19.1111n  700.0000m  965.6346m -265.6346m 
 -682.70678m   19.0990n  700.0000m  965.4932m -265.4932m 
 -682.60678m   19.0870n  700.0000m  965.3518m -265.3518m 
 -682.50678m   19.0749n  700.0000m  965.2104m -265.2104m 
 -682.40678m   19.0629n  700.0000m  965.0689m -265.0689m 
 -682.30678m   19.0508n  700.0000m  964.9275m -264.9275m 
 -682.20678m   19.0388n  700.0000m  964.7861m -264.7861m 
 -682.10678m   19.0267n  700.0000m  964.6447m -264.6447m 
 -682.00678m   19.0147n  700.0000m  964.5033m -264.5032m 
 -681.90678m   19.0027n  700.0000m  964.3618m -264.3618m 
 -681.80678m   18.9906n  700.0000m  964.2204m -264.2204m 
 -681.70678m   18.9786n  700.0000m  964.0790m -264.0790m 
 -681.60678m   18.9665n  700.0000m  963.9376m -263.9376m 
 -681.50678m   18.9545n  700.0000m  963.7962m -263.7961m 
 -681.40678m   18.9425n  700.0000m  963.6547m -263.6547m 
 -681.30678m   18.9305n  700.0000m  963.5133m -263.5133m 
 -681.20678m   18.9184n  700.0000m  963.3719m -263.3719m 
 -681.10678m   18.9064n  700.0000m  963.2305m -263.2305m 
 -681.00678m   18.8944n  700.0000m  963.0890m -263.0890m 
 -680.90678m   18.8824n  700.0000m  962.9476m -262.9476m 
 -680.80678m   18.8703n  700.0000m  962.8062m -262.8062m 
 -680.70678m   18.8583n  700.0000m  962.6648m -262.6648m 
 -680.60678m   18.8463n  700.0000m  962.5234m -262.5234m 
 -680.50678m   18.8343n  700.0000m  962.3819m -262.3819m 
 -680.40678m   18.8223n  700.0000m  962.2405m -262.2405m 
 -680.30678m   18.8103n  700.0000m  962.0991m -262.0991m 
 -680.20678m   18.7983n  700.0000m  961.9577m -261.9577m 
 -680.10678m   18.7863n  700.0000m  961.8163m -261.8162m 
 -680.00678m   18.7742n  700.0000m  961.6748m -261.6748m 
 -679.90678m   18.7622n  700.0000m  961.5334m -261.5334m 
 -679.80678m   18.7502n  700.0000m  961.3920m -261.3920m 
 -679.70678m   18.7382n  700.0000m  961.2506m -261.2506m 
 -679.60678m   18.7262n  700.0000m  961.1091m -261.1091m 
 -679.50678m   18.7142n  700.0000m  960.9677m -260.9677m 
 -679.40678m   18.7022n  700.0000m  960.8263m -260.8263m 
 -679.30678m   18.6903n  700.0000m  960.6849m -260.6849m 
 -679.20678m   18.6783n  700.0000m  960.5435m -260.5435m 
 -679.10678m   18.6663n  700.0000m  960.4020m -260.4020m 
 -679.00678m   18.6543n  700.0000m  960.2606m -260.2606m 
 -678.90678m   18.6423n  700.0000m  960.1192m -260.1192m 
 -678.80678m   18.6303n  700.0000m  959.9778m -259.9778m 
 -678.70678m   18.6183n  700.0000m  959.8364m -259.8363m 
 -678.60678m   18.6064n  700.0000m  959.6949m -259.6949m 
 -678.50678m   18.5944n  700.0000m  959.5535m -259.5535m 
 -678.40678m   18.5824n  700.0000m  959.4121m -259.4121m 
 -678.30678m   18.5704n  700.0000m  959.2707m -259.2707m 
 -678.20678m   18.5584n  700.0000m  959.1292m -259.1292m 
 -678.10678m   18.5465n  700.0000m  958.9878m -258.9878m 
 -678.00678m   18.5345n  700.0000m  958.8464m -258.8464m 
 -677.90678m   18.5225n  700.0000m  958.7050m -258.7050m 
 -677.80678m   18.5106n  700.0000m  958.5636m -258.5636m 
 -677.70678m   18.4986n  700.0000m  958.4221m -258.4221m 
 -677.60678m   18.4866n  700.0000m  958.2807m -258.2807m 
 -677.50678m   18.4747n  700.0000m  958.1393m -258.1393m 
 -677.40678m   18.4627n  700.0000m  957.9979m -257.9979m 
 -677.30678m   18.4508n  700.0000m  957.8565m -257.8564m 
 -677.20678m   18.4388n  700.0000m  957.7150m -257.7150m 
 -677.10678m   18.4268n  700.0000m  957.5736m -257.5736m 
 -677.00678m   18.4149n  700.0000m  957.4322m -257.4322m 
 -676.90678m   18.4029n  700.0000m  957.2908m -257.2908m 
 -676.80678m   18.3910n  700.0000m  957.1493m -257.1493m 
 -676.70678m   18.3790n  700.0000m  957.0079m -257.0079m 
 -676.60678m   18.3671n  700.0000m  956.8665m -256.8665m 
 -676.50678m   18.3551n  700.0000m  956.7251m -256.7251m 
 -676.40678m   18.3432n  700.0000m  956.5837m -256.5837m 
 -676.30678m   18.3313n  700.0000m  956.4422m -256.4422m 
 -676.20678m   18.3193n  700.0000m  956.3008m -256.3008m 
 -676.10678m   18.3074n  700.0000m  956.1594m -256.1594m 
 -676.00678m   18.2954n  700.0000m  956.0180m -256.0180m 
 -675.90678m   18.2835n  700.0000m  955.8766m -255.8765m 
 -675.80678m   18.2716n  700.0000m  955.7351m -255.7351m 
 -675.70678m   18.2596n  700.0000m  955.5937m -255.5937m 
