 ****** HSPICE -- Q-2020.03-SP2-2 linux64 (Nov  1 2020) ******                  
  Copyright (c) 1986 - 2025 by Synopsys, Inc. All Rights Reserved.              
  This software and the associated documentation are proprietary
  to Synopsys, Inc. This software may only be used in accordance
  with the terms and conditions of a written license agreement with
  Synopsys, Inc. All other use, reproduction, or distribution of
  this software is strictly prohibited.
  Input File: SRAM_SNM_TT.sp                                                    
  Command line options: /RAID2/cad/synopsys/hspice/2020.03-sp2-2/hspice/linux64/hspice -i SRAM_SNM_TT.sp -o SRAM_SNM_TT.lis
  Start time: Wed Mar 19 22:16:27 2025
 lic:  
 lic: FLEXlm: SDK_12.6 
 lic: USER:   es25MCS042           HOSTNAME: ee28 
 lic: HOSTID: "d85ed3efc19a"       PID:      89288 
 lic: Using FLEXlm license file: 
 lic: 26585@lshc 
 lic: Checkout 1 hspice 
 lic: License/Maintenance for hspice will expire on 14-may-2025/2024.09 
 lic: 227(in_use)/1100(total) FLOATING license(s) on SERVER 26585@lshc 
 lic:   
  
      
             
 Warning:'Floating bulk' occurs 1 times
 Summary of floating bulk:
 -----------------------
 |Node      |Device    |
 |----------+----------|
 |x         |mpr       |
 -----------------------
              
 *****************************************************************
 ******  option summary
 ******
 runlvl  = 3         bypass  = 2.0000    
 ******
 .title noise margin in hold operation

 ****** dc transfer curves tnom=  25.000 temp=  25.000 ******
x

 volt         voltage    voltage    voltage    voltage   
             q          qb         gr         gl         
 -494.97475m   31.6225n  700.0000m  700.0000m   -8.9308n 
 -494.87475m   31.7657n  700.0000m  699.8586m  141.4124u 
 -494.77475m   31.9096n  700.0000m  699.7172m  282.8337u 
 -494.67475m   32.0544n  700.0000m  699.5758m  424.2550u 
 -494.57475m   32.2000n  700.0000m  699.4343m  565.6764u 
 -494.47475m   32.3465n  700.0000m  699.2929m  707.0977u 
 -494.37475m   32.4938n  700.0000m  699.1515m  848.5190u 
 -494.27475m   32.6420n  700.0000m  699.0101m  989.9403u 
 -494.17475m   32.7910n  700.0000m  698.8687m    1.1314m 
 -494.07475m   32.9409n  700.0000m  698.7272m    1.2728m 
 -493.97475m   33.0916n  700.0000m  698.5858m    1.4142m 
 -493.87475m   33.2432n  700.0000m  698.4444m    1.5556m 
 -493.77475m   33.3957n  700.0000m  698.3030m    1.6970m 
 -493.67475m   33.5490n  700.0000m  698.1616m    1.8385m 
 -493.57475m   33.7033n  700.0000m  698.0201m    1.9799m 
 -493.47475m   33.8584n  700.0000m  697.8787m    2.1213m 
 -493.37475m   34.0144n  700.0000m  697.7373m    2.2627m 
 -493.27475m   34.1713n  700.0000m  697.5959m    2.4042m 
 -493.17475m   34.3291n  700.0000m  697.4544m    2.5456m 
 -493.07475m   34.4879n  700.0000m  697.3130m    2.6870m 
 -492.97475m   34.6475n  700.0000m  697.1716m    2.8284m 
 -492.87475m   34.8081n  700.0000m  697.0302m    2.9698m 
 -492.77475m   34.9695n  700.0000m  696.8888m    3.1113m 
 -492.67475m   35.1320n  700.0000m  696.7473m    3.2527m 
 -492.57475m   35.2953n  700.0000m  696.6059m    3.3941m 
 -492.47475m   35.4596n  700.0000m  696.4645m    3.5355m 
 -492.37475m   35.6249n  700.0000m  696.3231m    3.6769m 
 -492.27475m   35.7910n  700.0000m  696.1817m    3.8184m 
 -492.17475m   35.9582n  700.0000m  696.0402m    3.9598m 
 -492.07475m   36.1263n  700.0000m  695.8988m    4.1012m 
 -491.97475m   36.2954n  700.0000m  695.7574m    4.2426m 
 -491.87475m   36.4654n  700.0000m  695.6160m    4.3841m 
 -491.77475m   36.6365n  700.0000m  695.4746m    4.5255m 
 -491.67475m   36.8085n  700.0000m  695.3331m    4.6669m 
 -491.57475m   36.9815n  700.0000m  695.1917m    4.8083m 
 -491.47475m   37.1555n  700.0000m  695.0503m    4.9497m 
 -491.37475m   37.3305n  700.0000m  694.9089m    5.0912m 
 -491.27475m   37.5065n  700.0000m  694.7674m    5.2326m 
 -491.17475m   37.6836n  700.0000m  694.6260m    5.3740m 
 -491.07475m   37.8616n  700.0000m  694.4846m    5.5154m 
 -490.97475m   38.0407n  700.0000m  694.3432m    5.6568m 
 -490.87475m   38.2208n  700.0000m  694.2018m    5.7983m 
 -490.77475m   38.4019n  700.0000m  694.0603m    5.9397m 
 -490.67475m   38.5841n  700.0000m  693.9189m    6.0811m 
 -490.57475m   38.7674n  700.0000m  693.7775m    6.2225m 
 -490.47475m   38.9517n  700.0000m  693.6361m    6.3640m 
 -490.37475m   39.1370n  700.0000m  693.4947m    6.5054m 
 -490.27475m   39.3234n  700.0000m  693.3532m    6.6468m 
 -490.17475m   39.5109n  700.0000m  693.2118m    6.7882m 
 -490.07475m   39.6995n  700.0000m  693.0704m    6.9296m 
 -489.97475m   39.8892n  700.0000m  692.9290m    7.0711m 
 -489.87475m   40.0799n  700.0000m  692.7876m    7.2125m 
 -489.77475m   40.2718n  700.0000m  692.6461m    7.3539m 
 -489.67475m   40.4647n  700.0000m  692.5047m    7.4953m 
 -489.57475m   40.6588n  700.0000m  692.3633m    7.6367m 
 -489.47475m   40.8540n  700.0000m  692.2219m    7.7782m 
 -489.37475m   41.0503n  700.0000m  692.0804m    7.9196m 
 -489.27475m   41.2478n  700.0000m  691.9390m    8.0610m 
 -489.17475m   41.4463n  700.0000m  691.7976m    8.2024m 
 -489.07475m   41.6461n  700.0000m  691.6562m    8.3438m 
 -488.97475m   41.8469n  700.0000m  691.5148m    8.4853m 
 -488.87475m   42.0490n  700.0000m  691.3733m    8.6267m 
 -488.77475m   42.2522n  700.0000m  691.2319m    8.7681m 
 -488.67475m   42.4565n  700.0000m  691.0905m    8.9095m 
 -488.57475m   42.6621n  700.0000m  690.9491m    9.0510m 
 -488.47475m   42.8688n  700.0000m  690.8077m    9.1924m 
 -488.37475m   43.0767n  700.0000m  690.6662m    9.3338m 
 -488.27475m   43.2859n  700.0000m  690.5248m    9.4752m 
 -488.17475m   43.4962n  700.0000m  690.3834m    9.6166m 
 -488.07475m   43.7077n  700.0000m  690.2420m    9.7581m 
 -487.97475m   43.9205n  700.0000m  690.1005m    9.8995m 
 -487.87475m   44.1345n  700.0000m  689.9591m   10.0409m 
 -487.77475m   44.3497n  700.0000m  689.8177m   10.1823m 
 -487.67475m   44.5661n  700.0000m  689.6763m   10.3237m 
 -487.57475m   44.7838n  700.0000m  689.5349m   10.4652m 
 -487.47475m   45.0028n  700.0000m  689.3934m   10.6066m 
 -487.37475m   45.2230n  700.0000m  689.2520m   10.7480m 
 -487.27475m   45.4445n  700.0000m  689.1106m   10.8894m 
 -487.17475m   45.6673n  700.0000m  688.9692m   11.0309m 
 -487.07475m   45.8913n  700.0000m  688.8278m   11.1723m 
 -486.97475m   46.1167n  700.0000m  688.6863m   11.3137m 
 -486.87475m   46.3433n  700.0000m  688.5449m   11.4551m 
 -486.77475m   46.5713n  700.0000m  688.4035m   11.5965m 
 -486.67475m   46.8005n  700.0000m  688.2621m   11.7380m 
 -486.57475m   47.0311n  700.0000m  688.1207m   11.8794m 
 -486.47475m   47.2630n  700.0000m  687.9792m   12.0208m 
 -486.37475m   47.4963n  700.0000m  687.8378m   12.1622m 
 -486.27475m   47.7308n  700.0000m  687.6964m   12.3036m 
 -486.17475m   47.9668n  700.0000m  687.5550m   12.4451m 
 -486.07475m   48.2041n  700.0000m  687.4135m   12.5865m 
 -485.97475m   48.4428n  700.0000m  687.2721m   12.7279m 
 -485.87475m   48.6828n  700.0000m  687.1307m   12.8693m 
 -485.77475m   48.9242n  700.0000m  686.9893m   13.0108m 
 -485.67475m   49.1671n  700.0000m  686.8479m   13.1522m 
 -485.57475m   49.4113n  700.0000m  686.7064m   13.2936m 
 -485.47475m   49.6569n  700.0000m  686.5650m   13.4350m 
 -485.37475m   49.9040n  700.0000m  686.4236m   13.5764m 
 -485.27475m   50.1524n  700.0000m  686.2822m   13.7179m 
 -485.17475m   50.4024n  700.0000m  686.1408m   13.8593m 
 -485.07475m   50.6537n  700.0000m  685.9993m   14.0007m 
 -484.97475m   50.9065n  700.0000m  685.8579m   14.1421m 
 -484.87475m   51.1607n  700.0000m  685.7165m   14.2835m 
 -484.77475m   51.4165n  700.0000m  685.5751m   14.4250m 
 -484.67475m   51.6737n  700.0000m  685.4337m   14.5664m 
 -484.57475m   51.9323n  700.0000m  685.2922m   14.7078m 
 -484.47475m   52.1925n  700.0000m  685.1508m   14.8492m 
 -484.37475m   52.4542n  700.0000m  685.0094m   14.9906m 
 -484.27475m   52.7173n  700.0000m  684.8680m   15.1321m 
 -484.17475m   52.9820n  700.0000m  684.7265m   15.2735m 
 -484.07475m   53.2483n  700.0000m  684.5851m   15.4149m 
 -483.97475m   53.5160n  700.0000m  684.4437m   15.5563m 
 -483.87475m   53.7853n  700.0000m  684.3023m   15.6978m 
 -483.77475m   54.0562n  700.0000m  684.1609m   15.8392m 
 -483.67475m   54.3286n  700.0000m  684.0194m   15.9806m 
 -483.57475m   54.6026n  700.0000m  683.8780m   16.1220m 
 -483.47475m   54.8781n  700.0000m  683.7366m   16.2634m 
 -483.37475m   55.1553n  700.0000m  683.5952m   16.4049m 
 -483.27475m   55.4340n  700.0000m  683.4538m   16.5463m 
 -483.17475m   55.7144n  700.0000m  683.3123m   16.6877m 
 -483.07475m   55.9964n  700.0000m  683.1709m   16.8291m 
 -482.97475m   56.2800n  700.0000m  683.0295m   16.9705m 
 -482.87475m   56.5652n  700.0000m  682.8881m   17.1120m 
 -482.77475m   56.8521n  700.0000m  682.7467m   17.2534m 
 -482.67475m   57.1407n  700.0000m  682.6052m   17.3948m 
 -482.57475m   57.4309n  700.0000m  682.4638m   17.5362m 
 -482.47475m   57.7228n  700.0000m  682.3224m   17.6777m 
 -482.37475m   58.0163n  700.0000m  682.1810m   17.8191m 
 -482.27475m   58.3116n  700.0000m  682.0395m   17.9605m 
 -482.17475m   58.6086n  700.0000m  681.8981m   18.1019m 
 -482.07475m   58.9072n  700.0000m  681.7567m   18.2433m 
 -481.97475m   59.2076n  700.0000m  681.6153m   18.3848m 
 -481.87475m   59.5098n  700.0000m  681.4739m   18.5262m 
 -481.77475m   59.8136n  700.0000m  681.3324m   18.6676m 
 -481.67475m   60.1193n  700.0000m  681.1910m   18.8090m 
 -481.57475m   60.4267n  700.0000m  681.0496m   18.9504m 
 -481.47475m   60.7358n  700.0000m  680.9082m   19.0919m 
 -481.37475m   61.0468n  700.0000m  680.7668m   19.2333m 
 -481.27475m   61.3595n  700.0000m  680.6253m   19.3747m 
 -481.17475m   61.6741n  700.0000m  680.4839m   19.5161m 
 -481.07475m   61.9905n  700.0000m  680.3425m   19.6576m 
 -480.97475m   62.3086n  700.0000m  680.2011m   19.7990m 
 -480.87475m   62.6287n  700.0000m  680.0597m   19.9404m 
 -480.77475m   62.9506n  700.0000m  679.9182m   20.0818m 
 -480.67475m   63.2743n  700.0000m  679.7768m   20.2232m 
 -480.57475m   63.5999n  700.0000m  679.6354m   20.3647m 
 -480.47475m   63.9274n  700.0000m  679.4940m   20.5061m 
 -480.37475m   64.2568n  700.0000m  679.3525m   20.6475m 
 -480.27475m   64.5880n  700.0000m  679.2111m   20.7889m 
 -480.17475m   64.9212n  700.0000m  679.0697m   20.9303m 
 -480.07475m   65.2563n  700.0000m  678.9283m   21.0718m 
 -479.97475m   65.5934n  700.0000m  678.7869m   21.2132m 
 -479.87475m   65.9324n  700.0000m  678.6454m   21.3546m 
 -479.77475m   66.2733n  700.0000m  678.5040m   21.4960m 
 -479.67475m   66.6162n  700.0000m  678.3626m   21.6375m 
 -479.57475m   66.9611n  700.0000m  678.2212m   21.7789m 
 -479.47475m   67.3080n  700.0000m  678.0798m   21.9203m 
 -479.37475m   67.6569n  700.0000m  677.9383m   22.0617m 
 -479.27475m   68.0078n  700.0000m  677.7969m   22.2031m 
 -479.17475m   68.3607n  700.0000m  677.6555m   22.3446m 
 -479.07475m   68.7157n  700.0000m  677.5141m   22.4860m 
 -478.97475m   69.0727n  700.0000m  677.3727m   22.6274m 
 -478.87475m   69.4318n  700.0000m  677.2312m   22.7688m 
 -478.77475m   69.7930n  700.0000m  677.0898m   22.9102m 
 -478.67475m   70.1562n  700.0000m  676.9484m   23.0517m 
 -478.57475m   70.5216n  700.0000m  676.8070m   23.1931m 
 -478.47475m   70.8890n  700.0000m  676.6655m   23.3345m 
 -478.37475m   71.2586n  700.0000m  676.5241m   23.4759m 
 -478.27475m   71.6303n  700.0000m  676.3827m   23.6173m 
 -478.17475m   72.0041n  700.0000m  676.2413m   23.7588m 
 -478.07475m   72.3802n  700.0000m  676.0999m   23.9002m 
 -477.97475m   72.7584n  700.0000m  675.9584m   24.0416m 
 -477.87475m   73.1387n  700.0000m  675.8170m   24.1830m 
 -477.77475m   73.5213n  700.0000m  675.6756m   24.3245m 
 -477.67475m   73.9061n  700.0000m  675.5342m   24.4659m 
 -477.57475m   74.2931n  700.0000m  675.3928m   24.6073m 
 -477.47475m   74.6823n  700.0000m  675.2513m   24.7487m 
 -477.37475m   75.0738n  700.0000m  675.1099m   24.8901m 
 -477.27475m   75.4676n  700.0000m  674.9685m   25.0316m 
 -477.17475m   75.8636n  700.0000m  674.8271m   25.1730m 
 -477.07475m   76.2619n  700.0000m  674.6857m   25.3144m 
 -476.97475m   76.6625n  700.0000m  674.5442m   25.4558m 
 -476.87475m   77.0654n  700.0000m  674.4028m   25.5972m 
 -476.77475m   77.4707n  700.0000m  674.2614m   25.7387m 
 -476.67475m   77.8783n  700.0000m  674.1200m   25.8801m 
 -476.57475m   78.2883n  700.0000m  673.9785m   26.0215m 
 -476.47475m   78.7006n  700.0000m  673.8371m   26.1629m 
 -476.37475m   79.1153n  700.0000m  673.6957m   26.3044m 
 -476.27475m   79.5324n  700.0000m  673.5543m   26.4458m 
 -476.17475m   79.9519n  700.0000m  673.4129m   26.5872m 
 -476.07475m   80.3739n  700.0000m  673.2714m   26.7286m 
 -475.97475m   80.7982n  700.0000m  673.1300m   26.8700m 
 -475.87475m   81.2251n  700.0000m  672.9886m   27.0115m 
 -475.77475m   81.6544n  700.0000m  672.8472m   27.1529m 
 -475.67475m   82.0862n  700.0000m  672.7058m   27.2943m 
 -475.57475m   82.5204n  700.0000m  672.5643m   27.4357m 
 -475.47475m   82.9572n  700.0000m  672.4229m   27.5771m 
 -475.37475m   83.3966n  700.0000m  672.2815m   27.7186m 
 -475.27475m   83.8384n  700.0000m  672.1401m   27.8600m 
 -475.17475m   84.2828n  700.0000m  671.9987m   28.0014m 
 -475.07475m   84.7298n  700.0000m  671.8572m   28.1428m 
 -474.97475m   85.1794n  700.0000m  671.7158m   28.2842m 
 -474.87475m   85.6315n  700.0000m  671.5744m   28.4257m 
 -474.77475m   86.0863n  700.0000m  671.4330m   28.5671m 
 -474.67475m   86.5437n  700.0000m  671.2916m   28.7085m 
 -474.57475m   87.0038n  700.0000m  671.1501m   28.8499m 
 -474.47475m   87.4665n  700.0000m  671.0087m   28.9914m 
 -474.37475m   87.9319n  700.0000m  670.8673m   29.1328m 
 -474.27475m   88.4000n  700.0000m  670.7259m   29.2742m 
 -474.17475m   88.8708n  700.0000m  670.5844m   29.4156m 
 -474.07475m   89.3443n  700.0000m  670.4430m   29.5570m 
 -473.97475m   89.8206n  700.0000m  670.3016m   29.6985m 
 -473.87475m   90.2996n  700.0000m  670.1602m   29.8399m 
 -473.77475m   90.7814n  700.0000m  670.0188m   29.9813m 
 -473.67475m   91.2659n  700.0000m  669.8773m   30.1227m 
 -473.57475m   91.7533n  700.0000m  669.7359m   30.2641m 
 -473.47475m   92.2435n  700.0000m  669.5945m   30.4056m 
 -473.37475m   92.7365n  700.0000m  669.4531m   30.5470m 
 -473.27475m   93.2324n  700.0000m  669.3117m   30.6884m 
 -473.17475m   93.7312n  700.0000m  669.1702m   30.8298m 
 -473.07475m   94.2328n  700.0000m  669.0288m   30.9713m 
 -472.97475m   94.7374n  700.0000m  668.8874m   31.1127m 
 -472.87475m   95.2448n  700.0000m  668.7460m   31.2541m 
 -472.77475m   95.7552n  700.0000m  668.6046m   31.3955m 
 -472.67475m   96.2686n  700.0000m  668.4631m   31.5369m 
 -472.57475m   96.7849n  700.0000m  668.3217m   31.6784m 
 -472.47475m   97.3042n  700.0000m  668.1803m   31.8198m 
 -472.37475m   97.8265n  700.0000m  668.0389m   31.9612m 
 -472.27475m   98.3519n  700.0000m  667.8975m   32.1026m 
 -472.17475m   98.8803n  700.0000m  667.7560m   32.2440m 
 -472.07475m   99.4117n  700.0000m  667.6146m   32.3855m 
 -471.97475m   99.9462n  700.0000m  667.4732m   32.5269m 
 -471.87475m  100.4839n  700.0000m  667.3318m   32.6683m 
 -471.77475m  101.0246n  700.0000m  667.1903m   32.8097m 
 -471.67475m  101.5684n  700.0000m  667.0489m   32.9512m 
 -471.57475m  102.1155n  700.0000m  666.9075m   33.0926m 
 -471.47475m  102.6656n  700.0000m  666.7661m   33.2340m 
 -471.37475m  103.2190n  700.0000m  666.6247m   33.3754m 
 -471.27475m  103.7756n  700.0000m  666.4832m   33.5168m 
 -471.17475m  104.3353n  700.0000m  666.3418m   33.6583m 
 -471.07475m  104.8984n  700.0000m  666.2004m   33.7997m 
 -470.97475m  105.4647n  700.0000m  666.0590m   33.9411m 
 -470.87475m  106.0342n  700.0000m  665.9176m   34.0825m 
 -470.77475m  106.6071n  700.0000m  665.7761m   34.2239m 
 -470.67475m  107.1833n  700.0000m  665.6347m   34.3654m 
 -470.57475m  107.7628n  700.0000m  665.4933m   34.5068m 
 -470.47475m  108.3457n  700.0000m  665.3519m   34.6482m 
 -470.37475m  108.9320n  700.0000m  665.2105m   34.7896m 
 -470.27475m  109.5216n  700.0000m  665.0690m   34.9310m 
 -470.17475m  110.1147n  700.0000m  664.9276m   35.0725m 
 -470.07475m  110.7112n  700.0000m  664.7862m   35.2139m 
 -469.97475m  111.3112n  700.0000m  664.6448m   35.3553m 
 -469.87475m  111.9146n  700.0000m  664.5034m   35.4967m 
 -469.77475m  112.5216n  700.0000m  664.3619m   35.6382m 
 -469.67475m  113.1320n  700.0000m  664.2205m   35.7796m 
 -469.57475m  113.7460n  700.0000m  664.0791m   35.9210m 
 -469.47475m  114.3636n  700.0000m  663.9377m   36.0624m 
 -469.37475m  114.9847n  700.0000m  663.7962m   36.2038m 
 -469.27475m  115.6094n  700.0000m  663.6548m   36.3453m 
 -469.17475m  116.2378n  700.0000m  663.5134m   36.4867m 
 -469.07475m  116.8698n  700.0000m  663.3720m   36.6281m 
 -468.97475m  117.5054n  700.0000m  663.2306m   36.7695m 
 -468.87475m  118.1448n  700.0000m  663.0891m   36.9109m 
 -468.77475m  118.7878n  700.0000m  662.9477m   37.0524m 
 -468.67475m  119.4346n  700.0000m  662.8063m   37.1938m 
 -468.57475m  120.0851n  700.0000m  662.6649m   37.3352m 
 -468.47475m  120.7394n  700.0000m  662.5235m   37.4766m 
 -468.37475m  121.3975n  700.0000m  662.3820m   37.6181m 
 -468.27475m  122.0594n  700.0000m  662.2406m   37.7595m 
 -468.17475m  122.7251n  700.0000m  662.0992m   37.9009m 
 -468.07475m  123.3947n  700.0000m  661.9578m   38.0423m 
 -467.97475m  124.0682n  700.0000m  661.8164m   38.1837m 
 -467.87475m  124.7456n  700.0000m  661.6749m   38.3252m 
 -467.77475m  125.4269n  700.0000m  661.5335m   38.4666m 
 -467.67475m  126.1122n  700.0000m  661.3921m   38.6080m 
 -467.57475m  126.8014n  700.0000m  661.2507m   38.7494m 
 -467.47475m  127.4947n  700.0000m  661.1093m   38.8908m 
 -467.37475m  128.1920n  700.0000m  660.9678m   39.0323m 
 -467.27475m  128.8933n  700.0000m  660.8264m   39.1737m 
 -467.17475m  129.5986n  700.0000m  660.6850m   39.3151m 
 -467.07475m  130.3081n  700.0000m  660.5436m   39.4565m 
 -466.97475m  131.0217n  700.0000m  660.4022m   39.5979m 
 -466.87475m  131.7394n  700.0000m  660.2607m   39.7394m 
 -466.77475m  132.4613n  700.0000m  660.1193m   39.8808m 
 -466.67475m  133.1874n  700.0000m  659.9779m   40.0222m 
 -466.57475m  133.9177n  700.0000m  659.8365m   40.1636m 
 -466.47475m  134.6522n  700.0000m  659.6950m   40.3051m 
 -466.37475m  135.3910n  700.0000m  659.5536m   40.4465m 
 -466.27475m  136.1341n  700.0000m  659.4122m   40.5879m 
 -466.17475m  136.8815n  700.0000m  659.2708m   40.7293m 
 -466.07475m  137.6332n  700.0000m  659.1294m   40.8707m 
 -465.97475m  138.3893n  700.0000m  658.9879m   41.0122m 
 -465.87475m  139.1498n  700.0000m  658.8465m   41.1536m 
 -465.77475m  139.9147n  700.0000m  658.7051m   41.2950m 
 -465.67475m  140.6840n  700.0000m  658.5637m   41.4364m 
 -465.57475m  141.4578n  700.0000m  658.4223m   41.5778m 
 -465.47475m  142.2361n  700.0000m  658.2808m   41.7193m 
 -465.37475m  143.0189n  700.0000m  658.1394m   41.8607m 
 -465.27475m  143.8063n  700.0000m  657.9980m   42.0021m 
 -465.17475m  144.5982n  700.0000m  657.8566m   42.1435m 
 -465.07475m  145.3947n  700.0000m  657.7152m   42.2849m 
 -464.97475m  146.1959n  700.0000m  657.5737m   42.4264m 
 -464.87475m  147.0017n  700.0000m  657.4323m   42.5678m 
 -464.77475m  147.8121n  700.0000m  657.2909m   42.7092m 
 -464.67475m  148.6273n  700.0000m  657.1495m   42.8506m 
 -464.57475m  149.4472n  700.0000m  657.0081m   42.9921m 
 -464.47475m  150.2719n  700.0000m  656.8666m   43.1335m 
 -464.37475m  151.1014n  700.0000m  656.7252m   43.2749m 
 -464.27475m  151.9357n  700.0000m  656.5838m   43.4163m 
 -464.17475m  152.7748n  700.0000m  656.4424m   43.5577m 
 -464.07475m  153.6188n  700.0000m  656.3010m   43.6992m 
 -463.97475m  154.4678n  700.0000m  656.1595m   43.8406m 
 -463.87475m  155.3216n  700.0000m  656.0181m   43.9820m 
 -463.77475m  156.1804n  700.0000m  655.8767m   44.1234m 
 -463.67475m  157.0442n  700.0000m  655.7353m   44.2648m 
 -463.57475m  157.9130n  700.0000m  655.5939m   44.4063m 
