 ****** HSPICE -- Q-2020.03-SP2-2 linux64 (Nov  1 2020) ******                  
  Copyright (c) 1986 - 2025 by Synopsys, Inc. All Rights Reserved.              
  This software and the associated documentation are proprietary
  to Synopsys, Inc. This software may only be used in accordance
  with the terms and conditions of a written license agreement with
  Synopsys, Inc. All other use, reproduction, or distribution of
  this software is strictly prohibited.
  Input File: SRAM_SNM_FF.sp                                                    
  Command line options: /RAID2/cad/synopsys/hspice/2020.03-sp2-2/hspice/linux64/hspice -i SRAM_SNM_FF.sp -o SRAM_SNM_FF.lis
  Start time: Sun Mar 23 13:19:30 2025
 lic:  
 lic: FLEXlm: SDK_12.6 
 lic: USER:   es25MCS042           HOSTNAME: ee28 
 lic: HOSTID: "d85ed3efc19a"       PID:      110477 
 lic: Using FLEXlm license file: 
 lic: 26585@lshc 
 lic: Checkout 1 hspice 
 lic: License/Maintenance for hspice will expire on 14-may-2025/2024.09 
 lic: 179(in_use)/1100(total) FLOATING license(s) on SERVER 26585@lshc 
 lic:   
  
      
             
 Warning:'Floating bulk' occurs 1 times
 Summary of floating bulk:
 -----------------------
 |Node      |Device    |
 |----------+----------|
 |x         |mpr       |
 -----------------------
              
 *****************************************************************
 ******  option summary
 ******
 runlvl  = 3         bypass  = 2.0000    
 ******
 .title noise margin in hold operation

 ****** dc transfer curves tnom=  25.000 temp=  25.000 ******
x

 volt         voltage    voltage    voltage    voltage   
             q          qb         gl         gr         
 -494.97475m   34.5862n  700.0000m   -9.6924n  700.0000m 
 -494.87475m   34.7412n  700.0000m  141.4116u  699.8586m 
 -494.77475m   34.8972n  700.0000m  282.8329u  699.7172m 
 -494.67475m   35.0541n  700.0000m  424.2543u  699.5758m 
 -494.57475m   35.2118n  700.0000m  565.6756u  699.4343m 
 -494.47475m   35.3705n  700.0000m  707.0969u  699.2929m 
 -494.37475m   35.5300n  700.0000m  848.5182u  699.1515m 
 -494.27475m   35.6905n  700.0000m  989.9395u  699.0101m 
 -494.17475m   35.8519n  700.0000m    1.1314m  698.8687m 
 -494.07475m   36.0142n  700.0000m    1.2728m  698.7272m 
 -493.97475m   36.1774n  700.0000m    1.4142m  698.5858m 
 -493.87475m   36.3416n  700.0000m    1.5556m  698.4444m 
 -493.77475m   36.5067n  700.0000m    1.6970m  698.3030m 
 -493.67475m   36.6728n  700.0000m    1.8385m  698.1616m 
 -493.57475m   36.8398n  700.0000m    1.9799m  698.0201m 
 -493.47475m   37.0078n  700.0000m    2.1213m  697.8787m 
 -493.37475m   37.1767n  700.0000m    2.2627m  697.7373m 
 -493.27475m   37.3466n  700.0000m    2.4042m  697.5959m 
 -493.17475m   37.5175n  700.0000m    2.5456m  697.4545m 
 -493.07475m   37.6893n  700.0000m    2.6870m  697.3130m 
 -492.97475m   37.8622n  700.0000m    2.8284m  697.1716m 
 -492.87475m   38.0360n  700.0000m    2.9698m  697.0302m 
 -492.77475m   38.2108n  700.0000m    3.1113m  696.8888m 
 -492.67475m   38.3866n  700.0000m    3.2527m  696.7473m 
 -492.57475m   38.5635n  700.0000m    3.3941m  696.6059m 
 -492.47475m   38.7413n  700.0000m    3.5355m  696.4645m 
 -492.37475m   38.9201n  700.0000m    3.6769m  696.3231m 
 -492.27475m   39.1000n  700.0000m    3.8184m  696.1817m 
 -492.17475m   39.2809n  700.0000m    3.9598m  696.0402m 
 -492.07475m   39.4629n  700.0000m    4.1012m  695.8988m 
 -491.97475m   39.6459n  700.0000m    4.2426m  695.7574m 
 -491.87475m   39.8299n  700.0000m    4.3841m  695.6160m 
 -491.77475m   40.0150n  700.0000m    4.5255m  695.4746m 
 -491.67475m   40.2011n  700.0000m    4.6669m  695.3331m 
 -491.57475m   40.3883n  700.0000m    4.8083m  695.1917m 
 -491.47475m   40.5766n  700.0000m    4.9497m  695.0503m 
 -491.37475m   40.7660n  700.0000m    5.0912m  694.9089m 
 -491.27475m   40.9564n  700.0000m    5.2326m  694.7675m 
 -491.17475m   41.1480n  700.0000m    5.3740m  694.6260m 
 -491.07475m   41.3406n  700.0000m    5.5154m  694.4846m 
 -490.97475m   41.5343n  700.0000m    5.6568m  694.3432m 
 -490.87475m   41.7292n  700.0000m    5.7983m  694.2018m 
 -490.77475m   41.9251n  700.0000m    5.9397m  694.0603m 
 -490.67475m   42.1222n  700.0000m    6.0811m  693.9189m 
 -490.57475m   42.3204n  700.0000m    6.2225m  693.7775m 
 -490.47475m   42.5198n  700.0000m    6.3639m  693.6361m 
 -490.37475m   42.7203n  700.0000m    6.5054m  693.4947m 
 -490.27475m   42.9219n  700.0000m    6.6468m  693.3532m 
 -490.17475m   43.1247n  700.0000m    6.7882m  693.2118m 
 -490.07475m   43.3287n  700.0000m    6.9296m  693.0704m 
 -489.97475m   43.5338n  700.0000m    7.0711m  692.9290m 
 -489.87475m   43.7401n  700.0000m    7.2125m  692.7876m 
 -489.77475m   43.9476n  700.0000m    7.3539m  692.6461m 
 -489.67475m   44.1562n  700.0000m    7.4953m  692.5047m 
 -489.57475m   44.3661n  700.0000m    7.6367m  692.3633m 
 -489.47475m   44.5771n  700.0000m    7.7782m  692.2219m 
 -489.37475m   44.7894n  700.0000m    7.9196m  692.0804m 
 -489.27475m   45.0029n  700.0000m    8.0610m  691.9390m 
 -489.17475m   45.2176n  700.0000m    8.2024m  691.7976m 
 -489.07475m   45.4336n  700.0000m    8.3438m  691.6562m 
 -488.97475m   45.6507n  700.0000m    8.4853m  691.5148m 
 -488.87475m   45.8692n  700.0000m    8.6267m  691.3733m 
 -488.77475m   46.0888n  700.0000m    8.7681m  691.2319m 
 -488.67475m   46.3098n  700.0000m    8.9095m  691.0905m 
 -488.57475m   46.5320n  700.0000m    9.0510m  690.9491m 
 -488.47475m   46.7554n  700.0000m    9.1924m  690.8077m 
 -488.37475m   46.9802n  700.0000m    9.3338m  690.6662m 
 -488.27475m   47.2062n  700.0000m    9.4752m  690.5248m 
 -488.17475m   47.4336n  700.0000m    9.6166m  690.3834m 
 -488.07475m   47.6622n  700.0000m    9.7581m  690.2420m 
 -487.97475m   47.8921n  700.0000m    9.8995m  690.1006m 
 -487.87475m   48.1234n  700.0000m   10.0409m  689.9591m 
 -487.77475m   48.3560n  700.0000m   10.1823m  689.8177m 
 -487.67475m   48.5899n  700.0000m   10.3237m  689.6763m 
 -487.57475m   48.8252n  700.0000m   10.4652m  689.5349m 
 -487.47475m   49.0618n  700.0000m   10.6066m  689.3934m 
 -487.37475m   49.2997n  700.0000m   10.7480m  689.2520m 
 -487.27475m   49.5391n  700.0000m   10.8894m  689.1106m 
 -487.17475m   49.7798n  700.0000m   11.0309m  688.9692m 
 -487.07475m   50.0219n  700.0000m   11.1723m  688.8278m 
 -486.97475m   50.2653n  700.0000m   11.3137m  688.6863m 
 -486.87475m   50.5102n  700.0000m   11.4551m  688.5449m 
 -486.77475m   50.7565n  700.0000m   11.5965m  688.4035m 
 -486.67475m   51.0041n  700.0000m   11.7380m  688.2621m 
 -486.57475m   51.2532n  700.0000m   11.8794m  688.1207m 
 -486.47475m   51.5038n  700.0000m   12.0208m  687.9792m 
 -486.37475m   51.7557n  700.0000m   12.1622m  687.8378m 
 -486.27475m   52.0091n  700.0000m   12.3036m  687.6964m 
 -486.17475m   52.2640n  700.0000m   12.4451m  687.5550m 
 -486.07475m   52.5203n  700.0000m   12.5865m  687.4136m 
 -485.97475m   52.7781n  700.0000m   12.7279m  687.2721m 
 -485.87475m   53.0374n  700.0000m   12.8693m  687.1307m 
 -485.77475m   53.2981n  700.0000m   13.0108m  686.9893m 
 -485.67475m   53.5604n  700.0000m   13.1522m  686.8479m 
 -485.57475m   53.8241n  700.0000m   13.2936m  686.7064m 
 -485.47475m   54.0894n  700.0000m   13.4350m  686.5650m 
 -485.37475m   54.3562n  700.0000m   13.5764m  686.4236m 
 -485.27475m   54.6245n  700.0000m   13.7179m  686.2822m 
 -485.17475m   54.8943n  700.0000m   13.8593m  686.1408m 
 -485.07475m   55.1657n  700.0000m   14.0007m  685.9993m 
 -484.97475m   55.4387n  700.0000m   14.1421m  685.8579m 
 -484.87475m   55.7132n  700.0000m   14.2835m  685.7165m 
 -484.77475m   55.9893n  700.0000m   14.4250m  685.5751m 
 -484.67475m   56.2670n  700.0000m   14.5664m  685.4337m 
 -484.57475m   56.5463n  700.0000m   14.7078m  685.2922m 
 -484.47475m   56.8271n  700.0000m   14.8492m  685.1508m 
 -484.37475m   57.1096n  700.0000m   14.9906m  685.0094m 
 -484.27475m   57.3937n  700.0000m   15.1321m  684.8680m 
 -484.17475m   57.6795n  700.0000m   15.2735m  684.7266m 
 -484.07475m   57.9668n  700.0000m   15.4149m  684.5851m 
 -483.97475m   58.2559n  700.0000m   15.5563m  684.4437m 
 -483.87475m   58.5465n  700.0000m   15.6978m  684.3023m 
 -483.77475m   58.8389n  700.0000m   15.8392m  684.1609m 
 -483.67475m   59.1329n  700.0000m   15.9806m  684.0194m 
 -483.57475m   59.4286n  700.0000m   16.1220m  683.8780m 
 -483.47475m   59.7260n  700.0000m   16.2634m  683.7366m 
 -483.37475m   60.0252n  700.0000m   16.4049m  683.5952m 
 -483.27475m   60.3260n  700.0000m   16.5463m  683.4538m 
 -483.17475m   60.6285n  700.0000m   16.6877m  683.3123m 
 -483.07475m   60.9328n  700.0000m   16.8291m  683.1709m 
 -482.97475m   61.2389n  700.0000m   16.9705m  683.0295m 
 -482.87475m   61.5467n  700.0000m   17.1120m  682.8881m 
 -482.77475m   61.8562n  700.0000m   17.2534m  682.7467m 
 -482.67475m   62.1676n  700.0000m   17.3948m  682.6052m 
 -482.57475m   62.4807n  700.0000m   17.5362m  682.4638m 
 -482.47475m   62.7956n  700.0000m   17.6777m  682.3224m 
 -482.37475m   63.1123n  700.0000m   17.8191m  682.1810m 
 -482.27475m   63.4309n  700.0000m   17.9605m  682.0396m 
 -482.17475m   63.7512n  700.0000m   18.1019m  681.8981m 
 -482.07475m   64.0735n  700.0000m   18.2433m  681.7567m 
 -481.97475m   64.3975n  700.0000m   18.3848m  681.6153m 
 -481.87475m   64.7234n  700.0000m   18.5262m  681.4739m 
 -481.77475m   65.0512n  700.0000m   18.6676m  681.3324m 
 -481.67475m   65.3809n  700.0000m   18.8090m  681.1910m 
 -481.57475m   65.7125n  700.0000m   18.9504m  681.0496m 
 -481.47475m   66.0459n  700.0000m   19.0919m  680.9082m 
 -481.37475m   66.3813n  700.0000m   19.2333m  680.7668m 
 -481.27475m   66.7186n  700.0000m   19.3747m  680.6253m 
 -481.17475m   67.0579n  700.0000m   19.5161m  680.4839m 
 -481.07475m   67.3991n  700.0000m   19.6576m  680.3425m 
 -480.97475m   67.7422n  700.0000m   19.7990m  680.2011m 
 -480.87475m   68.0874n  700.0000m   19.9404m  680.0597m 
 -480.77475m   68.4345n  700.0000m   20.0818m  679.9182m 
 -480.67475m   68.7836n  700.0000m   20.2232m  679.7768m 
 -480.57475m   69.1347n  700.0000m   20.3647m  679.6354m 
 -480.47475m   69.4878n  700.0000m   20.5061m  679.4940m 
 -480.37475m   69.8429n  700.0000m   20.6475m  679.3526m 
 -480.27475m   70.2001n  700.0000m   20.7889m  679.2111m 
 -480.17475m   70.5593n  700.0000m   20.9303m  679.0697m 
 -480.07475m   70.9206n  700.0000m   21.0718m  678.9283m 
 -479.97475m   71.2840n  700.0000m   21.2132m  678.7869m 
 -479.87475m   71.6495n  700.0000m   21.3546m  678.6454m 
 -479.77475m   72.0170n  700.0000m   21.4960m  678.5040m 
 -479.67475m   72.3867n  700.0000m   21.6374m  678.3626m 
 -479.57475m   72.7585n  700.0000m   21.7789m  678.2212m 
 -479.47475m   73.1324n  700.0000m   21.9203m  678.0798m 
 -479.37475m   73.5085n  700.0000m   22.0617m  677.9383m 
 -479.27475m   73.8868n  700.0000m   22.2031m  677.7969m 
 -479.17475m   74.2672n  700.0000m   22.3446m  677.6555m 
 -479.07475m   74.6498n  700.0000m   22.4860m  677.5141m 
 -478.97475m   75.0346n  700.0000m   22.6274m  677.3727m 
 -478.87475m   75.4216n  700.0000m   22.7688m  677.2312m 
 -478.77475m   75.8108n  700.0000m   22.9102m  677.0898m 
 -478.67475m   76.2023n  700.0000m   23.0517m  676.9484m 
 -478.57475m   76.5960n  700.0000m   23.1931m  676.8070m 
 -478.47475m   76.9920n  700.0000m   23.3345m  676.6656m 
 -478.37475m   77.3902n  700.0000m   23.4759m  676.5241m 
 -478.27475m   77.7908n  700.0000m   23.6173m  676.3827m 
 -478.17475m   78.1936n  700.0000m   23.7588m  676.2413m 
 -478.07475m   78.5988n  700.0000m   23.9002m  676.0999m 
 -477.97475m   79.0062n  700.0000m   24.0416m  675.9584m 
 -477.87475m   79.4161n  700.0000m   24.1830m  675.8170m 
 -477.77475m   79.8283n  700.0000m   24.3245m  675.6756m 
 -477.67475m   80.2428n  700.0000m   24.4659m  675.5342m 
 -477.57475m   80.6598n  700.0000m   24.6073m  675.3928m 
 -477.47475m   81.0791n  700.0000m   24.7487m  675.2513m 
 -477.37475m   81.5008n  700.0000m   24.8901m  675.1099m 
 -477.27475m   81.9250n  700.0000m   25.0316m  674.9685m 
 -477.17475m   82.3516n  700.0000m   25.1730m  674.8271m 
 -477.07475m   82.7807n  700.0000m   25.3144m  674.6857m 
 -476.97475m   83.2122n  700.0000m   25.4558m  674.5442m 
 -476.87475m   83.6462n  700.0000m   25.5972m  674.4028m 
 -476.77475m   84.0827n  700.0000m   25.7387m  674.2614m 
 -476.67475m   84.5217n  700.0000m   25.8801m  674.1200m 
 -476.57475m   84.9633n  700.0000m   26.0215m  673.9786m 
 -476.47475m   85.4074n  700.0000m   26.1629m  673.8371m 
 -476.37475m   85.8540n  700.0000m   26.3043m  673.6957m 
 -476.27475m   86.3032n  700.0000m   26.4458m  673.5543m 
 -476.17475m   86.7550n  700.0000m   26.5872m  673.4129m 
 -476.07475m   87.2094n  700.0000m   26.7286m  673.2715m 
 -475.97475m   87.6664n  700.0000m   26.8700m  673.1300m 
 -475.87475m   88.1260n  700.0000m   27.0115m  672.9886m 
 -475.77475m   88.5883n  700.0000m   27.1529m  672.8472m 
 -475.67475m   89.0532n  700.0000m   27.2943m  672.7058m 
 -475.57475m   89.5208n  700.0000m   27.4357m  672.5643m 
 -475.47475m   89.9911n  700.0000m   27.5771m  672.4229m 
 -475.37475m   90.4641n  700.0000m   27.7186m  672.2815m 
 -475.27475m   90.9398n  700.0000m   27.8600m  672.1401m 
 -475.17475m   91.4182n  700.0000m   28.0014m  671.9987m 
 -475.07475m   91.8995n  700.0000m   28.1428m  671.8572m 
 -474.97475m   92.3834n  700.0000m   28.2842m  671.7158m 
 -474.87475m   92.8702n  700.0000m   28.4257m  671.5744m 
 -474.77475m   93.3598n  700.0000m   28.5671m  671.4330m 
 -474.67475m   93.8521n  700.0000m   28.7085m  671.2916m 
 -474.57475m   94.3474n  700.0000m   28.8499m  671.1501m 
 -474.47475m   94.8454n  700.0000m   28.9914m  671.0087m 
 -474.37475m   95.3464n  700.0000m   29.1328m  670.8673m 
 -474.27475m   95.8502n  700.0000m   29.2742m  670.7259m 
 -474.17475m   96.3569n  700.0000m   29.4156m  670.5845m 
 -474.07475m   96.8665n  700.0000m   29.5570m  670.4430m 
 -473.97475m   97.3791n  700.0000m   29.6985m  670.3016m 
 -473.87475m   97.8946n  700.0000m   29.8399m  670.1602m 
 -473.77475m   98.4131n  700.0000m   29.9813m  670.0188m 
 -473.67475m   98.9345n  700.0000m   30.1227m  669.8774m 
 -473.57475m   99.4590n  700.0000m   30.2641m  669.7359m 
 -473.47475m   99.9865n  700.0000m   30.4056m  669.5945m 
 -473.37475m  100.5170n  700.0000m   30.5470m  669.4531m 
 -473.27475m  101.0506n  700.0000m   30.6884m  669.3117m 
 -473.17475m  101.5872n  700.0000m   30.8298m  669.1702m 
 -473.07475m  102.1270n  700.0000m   30.9712m  669.0288m 
 -472.97475m  102.6698n  700.0000m   31.1127m  668.8874m 
 -472.87475m  103.2158n  700.0000m   31.2541m  668.7460m 
 -472.77475m  103.7649n  700.0000m   31.3955m  668.6046m 
 -472.67475m  104.3172n  700.0000m   31.5369m  668.4631m 
 -472.57475m  104.8727n  700.0000m   31.6784m  668.3217m 
 -472.47475m  105.4313n  700.0000m   31.8198m  668.1803m 
 -472.37475m  105.9932n  700.0000m   31.9612m  668.0389m 
 -472.27475m  106.5583n  700.0000m   32.1026m  667.8975m 
 -472.17475m  107.1267n  700.0000m   32.2440m  667.7560m 
 -472.07475m  107.6984n  700.0000m   32.3855m  667.6146m 
 -471.97475m  108.2733n  700.0000m   32.5269m  667.4732m 
 -471.87475m  108.8515n  700.0000m   32.6683m  667.3318m 
 -471.77475m  109.4331n  700.0000m   32.8097m  667.1904m 
 -471.67475m  110.0181n  700.0000m   32.9511m  667.0489m 
 -471.57475m  110.6064n  700.0000m   33.0926m  666.9075m 
 -471.47475m  111.1981n  700.0000m   33.2340m  666.7661m 
 -471.37475m  111.7932n  700.0000m   33.3754m  666.6247m 
 -471.27475m  112.3917n  700.0000m   33.5168m  666.4833m 
 -471.17475m  112.9937n  700.0000m   33.6583m  666.3418m 
 -471.07475m  113.5991n  700.0000m   33.7997m  666.2004m 
 -470.97475m  114.2081n  700.0000m   33.9411m  666.0590m 
 -470.87475m  114.8205n  700.0000m   34.0825m  665.9176m 
 -470.77475m  115.4365n  700.0000m   34.2239m  665.7761m 
 -470.67475m  116.0560n  700.0000m   34.3654m  665.6347m 
 -470.57475m  116.6791n  700.0000m   34.5068m  665.4933m 
 -470.47475m  117.3058n  700.0000m   34.6482m  665.3519m 
 -470.37475m  117.9361n  700.0000m   34.7896m  665.2105m 
 -470.27475m  118.5701n  700.0000m   34.9310m  665.0690m 
 -470.17475m  119.2077n  700.0000m   35.0725m  664.9276m 
 -470.07475m  119.8489n  700.0000m   35.2139m  664.7862m 
 -469.97475m  120.4939n  700.0000m   35.3553m  664.6448m 
 -469.87475m  121.1426n  700.0000m   35.4967m  664.5034m 
 -469.77475m  121.7950n  700.0000m   35.6381m  664.3619m 
 -469.67475m  122.4512n  700.0000m   35.7796m  664.2205m 
 -469.57475m  123.1112n  700.0000m   35.9210m  664.0791m 
 -469.47475m  123.7749n  700.0000m   36.0624m  663.9377m 
 -469.37475m  124.4425n  700.0000m   36.2038m  663.7963m 
 -469.27475m  125.1140n  700.0000m   36.3453m  663.6548m 
 -469.17475m  125.7893n  700.0000m   36.4867m  663.5134m 
 -469.07475m  126.4685n  700.0000m   36.6281m  663.3720m 
 -468.97475m  127.1517n  700.0000m   36.7695m  663.2306m 
 -468.87475m  127.8388n  700.0000m   36.9109m  663.0892m 
 -468.77475m  128.5298n  700.0000m   37.0524m  662.9477m 
 -468.67475m  129.2248n  700.0000m   37.1938m  662.8063m 
 -468.57475m  129.9239n  700.0000m   37.3352m  662.6649m 
 -468.47475m  130.6270n  700.0000m   37.4766m  662.5235m 
 -468.37475m  131.3341n  700.0000m   37.6180m  662.3821m 
 -468.27475m  132.0453n  700.0000m   37.7595m  662.2406m 
 -468.17475m  132.7606n  700.0000m   37.9009m  662.0992m 
 -468.07475m  133.4801n  700.0000m   38.0423m  661.9578m 
 -467.97475m  134.2037n  700.0000m   38.1837m  661.8164m 
 -467.87475m  134.9314n  700.0000m   38.3252m  661.6749m 
 -467.77475m  135.6634n  700.0000m   38.4666m  661.5335m 
 -467.67475m  136.3996n  700.0000m   38.6080m  661.3921m 
 -467.57475m  137.1400n  700.0000m   38.7494m  661.2507m 
 -467.47475m  137.8847n  700.0000m   38.8908m  661.1093m 
 -467.37475m  138.6338n  700.0000m   39.0323m  660.9678m 
 -467.27475m  139.3871n  700.0000m   39.1737m  660.8264m 
 -467.17475m  140.1448n  700.0000m   39.3151m  660.6850m 
 -467.07475m  140.9068n  700.0000m   39.4565m  660.5436m 
 -466.97475m  141.6733n  700.0000m   39.5979m  660.4022m 
 -466.87475m  142.4442n  700.0000m   39.7394m  660.2607m 
 -466.77475m  143.2195n  700.0000m   39.8808m  660.1193m 
 -466.67475m  143.9993n  700.0000m   40.0222m  659.9779m 
 -466.57475m  144.7837n  700.0000m   40.1636m  659.8365m 
 -466.47475m  145.5725n  700.0000m   40.3050m  659.6951m 
 -466.37475m  146.3659n  700.0000m   40.4465m  659.5536m 
 -466.27475m  147.1639n  700.0000m   40.5879m  659.4122m 
 -466.17475m  147.9665n  700.0000m   40.7293m  659.2708m 
 -466.07475m  148.7737n  700.0000m   40.8707m  659.1294m 
 -465.97475m  149.5856n  700.0000m   41.0122m  658.9880m 
 -465.87475m  150.4022n  700.0000m   41.1536m  658.8465m 
 -465.77475m  151.2235n  700.0000m   41.2950m  658.7051m 
 -465.67475m  152.0495n  700.0000m   41.4364m  658.5637m 
 -465.57475m  152.8803n  700.0000m   41.5778m  658.4223m 
 -465.47475m  153.7159n  700.0000m   41.7193m  658.2809m 
 -465.37475m  154.5564n  700.0000m   41.8607m  658.1394m 
 -465.27475m  155.4017n  700.0000m   42.0021m  657.9980m 
 -465.17475m  156.2518n  700.0000m   42.1435m  657.8566m 
 -465.07475m  157.1069n  700.0000m   42.2849m  657.7152m 
 -464.97475m  157.9669n  700.0000m   42.4264m  657.5738m 
 -464.87475m  158.8319n  700.0000m   42.5678m  657.4323m 
 -464.77475m  159.7019n  700.0000m   42.7092m  657.2909m 
 -464.67475m  160.5770n  700.0000m   42.8506m  657.1495m 
 -464.57475m  161.4571n  700.0000m   42.9920m  657.0081m 
 -464.47475m  162.3422n  700.0000m   43.1335m  656.8666m 
 -464.37475m  163.2325n  700.0000m   43.2749m  656.7252m 
 -464.27475m  164.1280n  700.0000m   43.4163m  656.5838m 
 -464.17475m  165.0286n  700.0000m   43.5577m  656.4424m 
 -464.07475m  165.9344n  700.0000m   43.6992m  656.3010m 
 -463.97475m  166.8454n  700.0000m   43.8406m  656.1595m 
 -463.87475m  167.7617n  700.0000m   43.9820m  656.0181m 
 -463.77475m  168.6834n  700.0000m   44.1234m  655.8767m 
 -463.67475m  169.6103n  700.0000m   44.2648m  655.7353m 
 -463.57475m  170.5426n  700.0000m   44.4063m  655.5939m 
