 ****** HSPICE -- Q-2020.03-SP2-2 linux64 (Nov  1 2020) ******                  
  Copyright (c) 1986 - 2025 by Synopsys, Inc. All Rights Reserved.              
  This software and the associated documentation are proprietary
  to Synopsys, Inc. This software may only be used in accordance
  with the terms and conditions of a written license agreement with
  Synopsys, Inc. All other use, reproduction, or distribution of
  this software is strictly prohibited.
  Input File: SRAM_RSNM_SS.sp                                                   
  Command line options: /RAID2/cad/synopsys/hspice/2020.03-sp2-2/hspice/linux64/hspice -i SRAM_RSNM_SS.sp -o SRAM_RSNM_SS.lis
  Start time: Sun Mar 23 14:00:14 2025
 lic:  
 lic: FLEXlm: SDK_12.6 
 lic: USER:   es25MCS042           HOSTNAME: ee28 
 lic: HOSTID: "d85ed3efc19a"       PID:      143846 
 lic: Using FLEXlm license file: 
 lic: 26585@lshc 
 lic: Checkout 1 hspice 
 lic: License/Maintenance for hspice will expire on 14-may-2025/2024.09 
 lic: 184(in_use)/1100(total) FLOATING license(s) on SERVER 26585@lshc 
 lic:   
  
      
             
 Warning:'Floating bulk' occurs 1 times
 Summary of floating bulk:
 -----------------------
 |Node      |Device    |
 |----------+----------|
 |x         |mpr       |
 -----------------------
              
 *****************************************************************
 ******  option summary
 ******
 runlvl  = 3         bypass  = 2.0000    
 ******
 .title noise margin in read operation

 ****** dc transfer curves tnom=  25.000 temp=  25.000 ******
x

 volt         voltage    voltage    voltage    voltage   
             q          qb         gl         gr         
 -494.97475m  101.0308m  700.0000m  -12.4607n  801.0308m 
 -494.87475m  101.0427m  700.0000m  141.4088u  800.9013m 
 -494.77475m  101.0545m  700.0000m  282.8302u  800.7717m 
 -494.67475m  101.0664m  700.0000m  424.2515u  800.6421m 
 -494.57475m  101.0782m  700.0000m  565.6728u  800.5125m 
 -494.47475m  101.0901m  700.0000m  707.0941u  800.3830m 
 -494.37475m  101.1020m  700.0000m  848.5154u  800.2534m 
 -494.27475m  101.1138m  700.0000m  989.9367u  800.1239m 
 -494.17475m  101.1257m  700.0000m    1.1314m  799.9944m 
 -494.07475m  101.1376m  700.0000m    1.2728m  799.8648m 
 -493.97475m  101.1495m  700.0000m    1.4142m  799.7353m 
 -493.87475m  101.1615m  700.0000m    1.5556m  799.6058m 
 -493.77475m  101.1734m  700.0000m    1.6970m  799.4763m 
 -493.67475m  101.1853m  700.0000m    1.8385m  799.3468m 
 -493.57475m  101.1973m  700.0000m    1.9799m  799.2174m 
 -493.47475m  101.2092m  700.0000m    2.1213m  799.0879m 
 -493.37475m  101.2212m  700.0000m    2.2627m  798.9584m 
 -493.27475m  101.2331m  700.0000m    2.4041m  798.8290m 
 -493.17475m  101.2451m  700.0000m    2.5456m  798.6995m 
 -493.07475m  101.2571m  700.0000m    2.6870m  798.5701m 
 -492.97475m  101.2691m  700.0000m    2.8284m  798.4406m 
 -492.87475m  101.2811m  700.0000m    2.9698m  798.3112m 
 -492.77475m  101.2931m  700.0000m    3.1113m  798.1818m 
 -492.67475m  101.3051m  700.0000m    3.2527m  798.0524m 
 -492.57475m  101.3171m  700.0000m    3.3941m  797.9230m 
 -492.47475m  101.3291m  700.0000m    3.5355m  797.7936m 
 -492.37475m  101.3412m  700.0000m    3.6769m  797.6642m 
 -492.27475m  101.3532m  700.0000m    3.8184m  797.5348m 
 -492.17475m  101.3653m  700.0000m    3.9598m  797.4055m 
 -492.07475m  101.3773m  700.0000m    4.1012m  797.2761m 
 -491.97475m  101.3894m  700.0000m    4.2426m  797.1468m 
 -491.87475m  101.4015m  700.0000m    4.3840m  797.0174m 
 -491.77475m  101.4136m  700.0000m    4.5255m  796.8881m 
 -491.67475m  101.4257m  700.0000m    4.6669m  796.7588m 
 -491.57475m  101.4378m  700.0000m    4.8083m  796.6295m 
 -491.47475m  101.4499m  700.0000m    4.9497m  796.5002m 
 -491.37475m  101.4620m  700.0000m    5.0912m  796.3709m 
 -491.27475m  101.4742m  700.0000m    5.2326m  796.2416m 
 -491.17475m  101.4863m  700.0000m    5.3740m  796.1123m 
 -491.07475m  101.4984m  700.0000m    5.5154m  795.9830m 
 -490.97475m  101.5106m  700.0000m    5.6568m  795.8537m 
 -490.87475m  101.5228m  700.0000m    5.7983m  795.7245m 
 -490.77475m  101.5349m  700.0000m    5.9397m  795.5952m 
 -490.67475m  101.5471m  700.0000m    6.0811m  795.4660m 
 -490.57475m  101.5593m  700.0000m    6.2225m  795.3368m 
 -490.47475m  101.5715m  700.0000m    6.3639m  795.2075m 
 -490.37475m  101.5837m  700.0000m    6.5054m  795.0783m 
 -490.27475m  101.5959m  700.0000m    6.6468m  794.9491m 
 -490.17475m  101.6081m  700.0000m    6.7882m  794.8199m 
 -490.07475m  101.6204m  700.0000m    6.9296m  794.6907m 
 -489.97475m  101.6326m  700.0000m    7.0711m  794.5615m 
 -489.87475m  101.6449m  700.0000m    7.2125m  794.4324m 
 -489.77475m  101.6571m  700.0000m    7.3539m  794.3032m 
 -489.67475m  101.6694m  700.0000m    7.4953m  794.1740m 
 -489.57475m  101.6817m  700.0000m    7.6367m  794.0449m 
 -489.47475m  101.6939m  700.0000m    7.7782m  793.9158m 
 -489.37475m  101.7062m  700.0000m    7.9196m  793.7866m 
 -489.27475m  101.7185m  700.0000m    8.0610m  793.6575m 
 -489.17475m  101.7308m  700.0000m    8.2024m  793.5284m 
 -489.07475m  101.7431m  700.0000m    8.3438m  793.3993m 
 -488.97475m  101.7555m  700.0000m    8.4853m  793.2702m 
 -488.87475m  101.7678m  700.0000m    8.6267m  793.1411m 
 -488.77475m  101.7801m  700.0000m    8.7681m  793.0120m 
 -488.67475m  101.7925m  700.0000m    8.9095m  792.8829m 
 -488.57475m  101.8049m  700.0000m    9.0510m  792.7539m 
 -488.47475m  101.8172m  700.0000m    9.1924m  792.6248m 
 -488.37475m  101.8296m  700.0000m    9.3338m  792.4958m 
 -488.27475m  101.8420m  700.0000m    9.4752m  792.3668m 
 -488.17475m  101.8544m  700.0000m    9.6166m  792.2377m 
 -488.07475m  101.8668m  700.0000m    9.7581m  792.1087m 
 -487.97475m  101.8792m  700.0000m    9.8995m  791.9797m 
 -487.87475m  101.8916m  700.0000m   10.0409m  791.8507m 
 -487.77475m  101.9040m  700.0000m   10.1823m  791.7217m 
 -487.67475m  101.9165m  700.0000m   10.3237m  791.5927m 
 -487.57475m  101.9289m  700.0000m   10.4652m  791.4637m 
 -487.47475m  101.9414m  700.0000m   10.6066m  791.3348m 
 -487.37475m  101.9538m  700.0000m   10.7480m  791.2058m 
 -487.27475m  101.9663m  700.0000m   10.8894m  791.0769m 
 -487.17475m  101.9788m  700.0000m   11.0308m  790.9479m 
 -487.07475m  101.9913m  700.0000m   11.1723m  790.8190m 
 -486.97475m  102.0038m  700.0000m   11.3137m  790.6901m 
 -486.87475m  102.0163m  700.0000m   11.4551m  790.5611m 
 -486.77475m  102.0288m  700.0000m   11.5965m  790.4322m 
 -486.67475m  102.0413m  700.0000m   11.7380m  790.3033m 
 -486.57475m  102.0538m  700.0000m   11.8794m  790.1744m 
 -486.47475m  102.0664m  700.0000m   12.0208m  790.0456m 
 -486.37475m  102.0789m  700.0000m   12.1622m  789.9167m 
 -486.27475m  102.0915m  700.0000m   12.3036m  789.7878m 
 -486.17475m  102.1040m  700.0000m   12.4451m  789.6590m 
 -486.07475m  102.1166m  700.0000m   12.5865m  789.5301m 
 -485.97475m  102.1292m  700.0000m   12.7279m  789.4013m 
 -485.87475m  102.1418m  700.0000m   12.8693m  789.2725m 
 -485.77475m  102.1544m  700.0000m   13.0107m  789.1436m 
 -485.67475m  102.1670m  700.0000m   13.1522m  789.0148m 
 -485.57475m  102.1796m  700.0000m   13.2936m  788.8860m 
 -485.47475m  102.1923m  700.0000m   13.4350m  788.7572m 
 -485.37475m  102.2049m  700.0000m   13.5764m  788.6284m 
 -485.27475m  102.2175m  700.0000m   13.7179m  788.4997m 
 -485.17475m  102.2302m  700.0000m   13.8593m  788.3709m 
 -485.07475m  102.2429m  700.0000m   14.0007m  788.2421m 
 -484.97475m  102.2555m  700.0000m   14.1421m  788.1134m 
 -484.87475m  102.2682m  700.0000m   14.2835m  787.9847m 
 -484.77475m  102.2809m  700.0000m   14.4250m  787.8559m 
 -484.67475m  102.2936m  700.0000m   14.5664m  787.7272m 
 -484.57475m  102.3063m  700.0000m   14.7078m  787.5985m 
 -484.47475m  102.3190m  700.0000m   14.8492m  787.4698m 
 -484.37475m  102.3317m  700.0000m   14.9906m  787.3411m 
 -484.27475m  102.3445m  700.0000m   15.1321m  787.2124m 
 -484.17475m  102.3572m  700.0000m   15.2735m  787.0837m 
 -484.07475m  102.3700m  700.0000m   15.4149m  786.9550m 
 -483.97475m  102.3827m  700.0000m   15.5563m  786.8264m 
 -483.87475m  102.3955m  700.0000m   15.6978m  786.6977m 
 -483.77475m  102.4083m  700.0000m   15.8392m  786.5691m 
 -483.67475m  102.4211m  700.0000m   15.9806m  786.4405m 
 -483.57475m  102.4339m  700.0000m   16.1220m  786.3118m 
 -483.47475m  102.4467m  700.0000m   16.2634m  786.1832m 
 -483.37475m  102.4595m  700.0000m   16.4049m  786.0546m 
 -483.27475m  102.4723m  700.0000m   16.5463m  785.9260m 
 -483.17475m  102.4851m  700.0000m   16.6877m  785.7974m 
 -483.07475m  102.4980m  700.0000m   16.8291m  785.6688m 
 -482.97475m  102.5108m  700.0000m   16.9705m  785.5403m 
 -482.87475m  102.5237m  700.0000m   17.1120m  785.4117m 
 -482.77475m  102.5366m  700.0000m   17.2534m  785.2831m 
 -482.67475m  102.5494m  700.0000m   17.3948m  785.1546m 
 -482.57475m  102.5623m  700.0000m   17.5362m  785.0261m 
 -482.47475m  102.5752m  700.0000m   17.6776m  784.8975m 
 -482.37475m  102.5881m  700.0000m   17.8191m  784.7690m 
 -482.27475m  102.6010m  700.0000m   17.9605m  784.6405m 
 -482.17475m  102.6139m  700.0000m   18.1019m  784.5120m 
 -482.07475m  102.6269m  700.0000m   18.2433m  784.3835m 
 -481.97475m  102.6398m  700.0000m   18.3848m  784.2550m 
 -481.87475m  102.6528m  700.0000m   18.5262m  784.1266m 
 -481.77475m  102.6657m  700.0000m   18.6676m  783.9981m 
 -481.67475m  102.6787m  700.0000m   18.8090m  783.8697m 
 -481.57475m  102.6917m  700.0000m   18.9504m  783.7412m 
 -481.47475m  102.7047m  700.0000m   19.0919m  783.6128m 
 -481.37475m  102.7177m  700.0000m   19.2333m  783.4843m 
 -481.27475m  102.7307m  700.0000m   19.3747m  783.3559m 
 -481.17475m  102.7437m  700.0000m   19.5161m  783.2275m 
 -481.07475m  102.7567m  700.0000m   19.6575m  783.0991m 
 -480.97475m  102.7697m  700.0000m   19.7990m  782.9707m 
 -480.87475m  102.7828m  700.0000m   19.9404m  782.8424m 
 -480.77475m  102.7958m  700.0000m   20.0818m  782.7140m 
 -480.67475m  102.8089m  700.0000m   20.2232m  782.5856m 
 -480.57475m  102.8219m  700.0000m   20.3647m  782.4573m 
 -480.47475m  102.8350m  700.0000m   20.5061m  782.3289m 
 -480.37475m  102.8481m  700.0000m   20.6475m  782.2006m 
 -480.27475m  102.8612m  700.0000m   20.7889m  782.0723m 
 -480.17475m  102.8743m  700.0000m   20.9303m  781.9439m 
 -480.07475m  102.8874m  700.0000m   21.0718m  781.8156m 
 -479.97475m  102.9005m  700.0000m   21.2132m  781.6873m 
 -479.87475m  102.9137m  700.0000m   21.3546m  781.5590m 
 -479.77475m  102.9268m  700.0000m   21.4960m  781.4308m 
 -479.67475m  102.9400m  700.0000m   21.6374m  781.3025m 
 -479.57475m  102.9531m  700.0000m   21.7789m  781.1742m 
 -479.47475m  102.9663m  700.0000m   21.9203m  781.0460m 
 -479.37475m  102.9795m  700.0000m   22.0617m  780.9177m 
 -479.27475m  102.9927m  700.0000m   22.2031m  780.7895m 
 -479.17475m  103.0059m  700.0000m   22.3445m  780.6613m 
 -479.07475m  103.0191m  700.0000m   22.4860m  780.5331m 
 -478.97475m  103.0323m  700.0000m   22.6274m  780.4049m 
 -478.87475m  103.0455m  700.0000m   22.7688m  780.2767m 
 -478.77475m  103.0587m  700.0000m   22.9102m  780.1485m 
 -478.67475m  103.0720m  700.0000m   23.0517m  780.0203m 
 -478.57475m  103.0852m  700.0000m   23.1931m  779.8921m 
 -478.47475m  103.0985m  700.0000m   23.3345m  779.7640m 
 -478.37475m  103.1118m  700.0000m   23.4759m  779.6358m 
 -478.27475m  103.1250m  700.0000m   23.6173m  779.5077m 
 -478.17475m  103.1383m  700.0000m   23.7588m  779.3795m 
 -478.07475m  103.1516m  700.0000m   23.9002m  779.2514m 
 -477.97475m  103.1649m  700.0000m   24.0416m  779.1233m 
 -477.87475m  103.1783m  700.0000m   24.1830m  778.9952m 
 -477.77475m  103.1916m  700.0000m   24.3244m  778.8671m 
 -477.67475m  103.2049m  700.0000m   24.4659m  778.7390m 
 -477.57475m  103.2183m  700.0000m   24.6073m  778.6110m 
 -477.47475m  103.2316m  700.0000m   24.7487m  778.4829m 
 -477.37475m  103.2450m  700.0000m   24.8901m  778.3548m 
 -477.27475m  103.2584m  700.0000m   25.0316m  778.2268m 
 -477.17475m  103.2718m  700.0000m   25.1730m  778.0988m 
 -477.07475m  103.2852m  700.0000m   25.3144m  777.9707m 
 -476.97475m  103.2986m  700.0000m   25.4558m  777.8427m 
 -476.87475m  103.3120m  700.0000m   25.5972m  777.7147m 
 -476.77475m  103.3254m  700.0000m   25.7387m  777.5867m 
 -476.67475m  103.3388m  700.0000m   25.8801m  777.4587m 
 -476.57475m  103.3523m  700.0000m   26.0215m  777.3307m 
 -476.47475m  103.3657m  700.0000m   26.1629m  777.2028m 
 -476.37475m  103.3792m  700.0000m   26.3043m  777.0748m 
 -476.27475m  103.3926m  700.0000m   26.4458m  776.9468m 
 -476.17475m  103.4061m  700.0000m   26.5872m  776.8189m 
 -476.07475m  103.4196m  700.0000m   26.7286m  776.6910m 
 -475.97475m  103.4331m  700.0000m   26.8700m  776.5631m 
 -475.87475m  103.4466m  700.0000m   27.0114m  776.4351m 
 -475.77475m  103.4601m  700.0000m   27.1529m  776.3072m 
 -475.67475m  103.4737m  700.0000m   27.2943m  776.1793m 
 -475.57475m  103.4872m  700.0000m   27.4357m  776.0515m 
 -475.47475m  103.5007m  700.0000m   27.5771m  775.9236m 
 -475.37475m  103.5143m  700.0000m   27.7186m  775.7957m 
 -475.27475m  103.5279m  700.0000m   27.8600m  775.6679m 
 -475.17475m  103.5414m  700.0000m   28.0014m  775.5400m 
 -475.07475m  103.5550m  700.0000m   28.1428m  775.4122m 
 -474.97475m  103.5686m  700.0000m   28.2842m  775.2844m 
 -474.87475m  103.5822m  700.0000m   28.4257m  775.1565m 
 -474.77475m  103.5958m  700.0000m   28.5671m  775.0287m 
 -474.67475m  103.6095m  700.0000m   28.7085m  774.9009m 
 -474.57475m  103.6231m  700.0000m   28.8499m  774.7731m 
 -474.47475m  103.6367m  700.0000m   28.9913m  774.6454m 
 -474.37475m  103.6504m  700.0000m   29.1328m  774.5176m 
 -474.27475m  103.6641m  700.0000m   29.2742m  774.3898m 
 -474.17475m  103.6777m  700.0000m   29.4156m  774.2621m 
 -474.07475m  103.6914m  700.0000m   29.5570m  774.1343m 
 -473.97475m  103.7051m  700.0000m   29.6985m  774.0066m 
 -473.87475m  103.7188m  700.0000m   29.8399m  773.8789m 
 -473.77475m  103.7325m  700.0000m   29.9813m  773.7512m 
 -473.67475m  103.7462m  700.0000m   30.1227m  773.6235m 
 -473.57475m  103.7600m  700.0000m   30.2641m  773.4958m 
 -473.47475m  103.7737m  700.0000m   30.4056m  773.3681m 
 -473.37475m  103.7874m  700.0000m   30.5470m  773.2404m 
 -473.27475m  103.8012m  700.0000m   30.6884m  773.1128m 
 -473.17475m  103.8150m  700.0000m   30.8298m  772.9851m 
 -473.07475m  103.8288m  700.0000m   30.9712m  772.8575m 
 -472.97475m  103.8425m  700.0000m   31.1127m  772.7298m 
 -472.87475m  103.8563m  700.0000m   31.2541m  772.6022m 
 -472.77475m  103.8702m  700.0000m   31.3955m  772.4746m 
 -472.67475m  103.8840m  700.0000m   31.5369m  772.3470m 
 -472.57475m  103.8978m  700.0000m   31.6783m  772.2194m 
 -472.47475m  103.9116m  700.0000m   31.8198m  772.0918m 
 -472.37475m  103.9255m  700.0000m   31.9612m  771.9643m 
 -472.27475m  103.9393m  700.0000m   32.1026m  771.8367m 
 -472.17475m  103.9532m  700.0000m   32.2440m  771.7091m 
 -472.07475m  103.9671m  700.0000m   32.3855m  771.5816m 
 -471.97475m  103.9810m  700.0000m   32.5269m  771.4541m 
 -471.87475m  103.9949m  700.0000m   32.6683m  771.3265m 
 -471.77475m  104.0088m  700.0000m   32.8097m  771.1990m 
 -471.67475m  104.0227m  700.0000m   32.9511m  771.0715m 
 -471.57475m  104.0366m  700.0000m   33.0926m  770.9440m 
 -471.47475m  104.0506m  700.0000m   33.2340m  770.8165m 
 -471.37475m  104.0645m  700.0000m   33.3754m  770.6891m 
 -471.27475m  104.0785m  700.0000m   33.5168m  770.5616m 
 -471.17475m  104.0924m  700.0000m   33.6582m  770.4342m 
 -471.07475m  104.1064m  700.0000m   33.7997m  770.3067m 
 -470.97475m  104.1204m  700.0000m   33.9411m  770.1793m 
 -470.87475m  104.1344m  700.0000m   34.0825m  770.0518m 
 -470.77475m  104.1484m  700.0000m   34.2239m  769.9244m 
 -470.67475m  104.1624m  700.0000m   34.3654m  769.7970m 
 -470.57475m  104.1764m  700.0000m   34.5068m  769.6696m 
 -470.47475m  104.1905m  700.0000m   34.6482m  769.5422m 
 -470.37475m  104.2045m  700.0000m   34.7896m  769.4149m 
 -470.27475m  104.2186m  700.0000m   34.9310m  769.2875m 
 -470.17475m  104.2327m  700.0000m   35.0725m  769.1602m 
 -470.07475m  104.2467m  700.0000m   35.2139m  769.0328m 
 -469.97475m  104.2608m  700.0000m   35.3553m  768.9055m 
 -469.87475m  104.2749m  700.0000m   35.4967m  768.7782m 
 -469.77475m  104.2890m  700.0000m   35.6381m  768.6508m 
 -469.67475m  104.3031m  700.0000m   35.7796m  768.5235m 
 -469.57475m  104.3173m  700.0000m   35.9210m  768.3962m 
 -469.47475m  104.3314m  700.0000m   36.0624m  768.2690m 
 -469.37475m  104.3456m  700.0000m   36.2038m  768.1417m 
 -469.27475m  104.3597m  700.0000m   36.3452m  768.0144m 
 -469.17475m  104.3739m  700.0000m   36.4867m  767.8872m 
 -469.07475m  104.3881m  700.0000m   36.6281m  767.7599m 
 -468.97475m  104.4022m  700.0000m   36.7695m  767.6327m 
 -468.87475m  104.4164m  700.0000m   36.9109m  767.5055m 
 -468.77475m  104.4306m  700.0000m   37.0524m  767.3783m 
 -468.67475m  104.4449m  700.0000m   37.1938m  767.2511m 
 -468.57475m  104.4591m  700.0000m   37.3352m  767.1239m 
 -468.47475m  104.4733m  700.0000m   37.4766m  766.9967m 
 -468.37475m  104.4876m  700.0000m   37.6180m  766.8695m 
 -468.27475m  104.5018m  700.0000m   37.7595m  766.7423m 
 -468.17475m  104.5161m  700.0000m   37.9009m  766.6152m 
 -468.07475m  104.5304m  700.0000m   38.0423m  766.4881m 
 -467.97475m  104.5447m  700.0000m   38.1837m  766.3609m 
 -467.87475m  104.5590m  700.0000m   38.3251m  766.2338m 
 -467.77475m  104.5733m  700.0000m   38.4666m  766.1067m 
 -467.67475m  104.5876m  700.0000m   38.6080m  765.9796m 
 -467.57475m  104.6019m  700.0000m   38.7494m  765.8525m 
 -467.47475m  104.6163m  700.0000m   38.8908m  765.7254m 
 -467.37475m  104.6306m  700.0000m   39.0322m  765.5983m 
 -467.27475m  104.6450m  700.0000m   39.1737m  765.4713m 
 -467.17475m  104.6594m  700.0000m   39.3151m  765.3442m 
 -467.07475m  104.6738m  700.0000m   39.4565m  765.2172m 
 -466.97475m  104.6882m  700.0000m   39.5979m  765.0902m 
 -466.87475m  104.7026m  700.0000m   39.7394m  764.9632m 
 -466.77475m  104.7170m  700.0000m   39.8808m  764.8361m 
 -466.67475m  104.7314m  700.0000m   40.0222m  764.7092m 
 -466.57475m  104.7458m  700.0000m   40.1636m  764.5822m 
 -466.47475m  104.7603m  700.0000m   40.3050m  764.4552m 
 -466.37475m  104.7747m  700.0000m   40.4465m  764.3282m 
 -466.27475m  104.7892m  700.0000m   40.5879m  764.2013m 
 -466.17475m  104.8037m  700.0000m   40.7293m  764.0743m 
 -466.07475m  104.8182m  700.0000m   40.8707m  763.9474m 
 -465.97475m  104.8327m  700.0000m   41.0121m  763.8205m 
 -465.87475m  104.8472m  700.0000m   41.1536m  763.6936m 
 -465.77475m  104.8617m  699.9999m   41.2950m  763.5666m 
 -465.67475m  104.8762m  699.9999m   41.4364m  763.4398m 
 -465.57475m  104.8908m  699.9999m   41.5778m  763.3129m 
 -465.47475m  104.9053m  699.9999m   41.7192m  763.1860m 
 -465.37475m  104.9199m  699.9999m   41.8607m  763.0591m 
 -465.27475m  104.9344m  699.9999m   42.0021m  762.9323m 
 -465.17475m  104.9490m  699.9999m   42.1435m  762.8054m 
 -465.07475m  104.9636m  699.9999m   42.2849m  762.6786m 
 -464.97475m  104.9782m  699.9999m   42.4264m  762.5518m 
 -464.87475m  104.9928m  699.9999m   42.5678m  762.4250m 
 -464.77475m  105.0074m  699.9999m   42.7092m  762.2982m 
 -464.67475m  105.0221m  699.9999m   42.8506m  762.1714m 
 -464.57475m  105.0367m  699.9999m   42.9920m  762.0446m 
 -464.47475m  105.0514m  699.9999m   43.1335m  761.9179m 
 -464.37475m  105.0660m  699.9999m   43.2749m  761.7911m 
 -464.27475m  105.0807m  699.9999m   43.4163m  761.6644m 
 -464.17475m  105.0954m  699.9999m   43.5577m  761.5376m 
 -464.07475m  105.1101m  699.9999m   43.6991m  761.4109m 
 -463.97475m  105.1248m  699.9999m   43.8406m  761.2842m 
 -463.87475m  105.1395m  699.9999m   43.9820m  761.1575m 
 -463.77475m  105.1543m  699.9999m   44.1234m  761.0308m 
 -463.67475m  105.1690m  699.9999m   44.2648m  760.9041m 
 -463.57475m  105.1837m  699.9999m   44.4062m  760.7774m 
