 ****** HSPICE -- Q-2020.03-SP2-2 linux64 (Nov  1 2020) ******                  
  Copyright (c) 1986 - 2025 by Synopsys, Inc. All Rights Reserved.              
  This software and the associated documentation are proprietary
  to Synopsys, Inc. This software may only be used in accordance
  with the terms and conditions of a written license agreement with
  Synopsys, Inc. All other use, reproduction, or distribution of
  this software is strictly prohibited.
  Input File: SRAM_SNM_TT.sp                                                    
  Command line options: /RAID2/cad/synopsys/hspice/2020.03-sp2-2/hspice/linux64/hspice -i SRAM_SNM_TT.sp -o SRAM_SNM_TT.lis
  Start time: Thu Mar 20 19:53:11 2025
 lic:  
 lic: FLEXlm: SDK_12.6 
 lic: USER:   es25MCS042           HOSTNAME: ee28 
 lic: HOSTID: "d85ed3efc19a"       PID:      152459 
 lic: Using FLEXlm license file: 
 lic: 26585@lshc 
 lic: Checkout 1 hspice 
 lic: License/Maintenance for hspice will expire on 14-may-2025/2024.09 
 lic: 256(in_use)/1100(total) FLOATING license(s) on SERVER 26585@lshc 
 lic:   
  
      
             
 Warning:'Floating bulk' occurs 1 times
 Summary of floating bulk:
 -----------------------
 |Node      |Device    |
 |----------+----------|
 |x         |mpr       |
 -----------------------
              
 *****************************************************************
 ******  option summary
 ******
 runlvl  = 3         bypass  = 2.0000    
 ******
 .title noise margin in hold operation

 ****** dc transfer curves tnom=  25.000 temp=  25.000 ******
x

 volt         voltage    voltage    voltage    voltage   
             gl         gr         v1         v2         
 -494.97475m   -8.9308n  700.0000m  494.9747m  494.9748m 
 -494.87475m  141.4124u  699.8586m  495.0747m  494.8748m 
 -494.77475m  282.8337u  699.7172m  495.1747m  494.7748m 
 -494.67475m  424.2550u  699.5758m  495.2747m  494.6748m 
 -494.57475m  565.6764u  699.4343m  495.3747m  494.5748m 
 -494.47475m  707.0977u  699.2929m  495.4747m  494.4748m 
 -494.37475m  848.5190u  699.1515m  495.5747m  494.3748m 
 -494.27475m  989.9403u  699.0101m  495.6747m  494.2748m 
 -494.17475m    1.1314m  698.8687m  495.7747m  494.1748m 
 -494.07475m    1.2728m  698.7272m  495.8747m  494.0748m 
 -493.97475m    1.4142m  698.5858m  495.9747m  493.9748m 
 -493.87475m    1.5556m  698.4444m  496.0747m  493.8748m 
 -493.77475m    1.6970m  698.3030m  496.1747m  493.7748m 
 -493.67475m    1.8385m  698.1616m  496.2747m  493.6748m 
 -493.57475m    1.9799m  698.0201m  496.3747m  493.5748m 
 -493.47475m    2.1213m  697.8787m  496.4747m  493.4748m 
 -493.37475m    2.2627m  697.7373m  496.5747m  493.3748m 
 -493.27475m    2.4042m  697.5959m  496.6747m  493.2748m 
 -493.17475m    2.5456m  697.4544m  496.7747m  493.1748m 
 -493.07475m    2.6870m  697.3130m  496.8747m  493.0748m 
 -492.97475m    2.8284m  697.1716m  496.9747m  492.9748m 
 -492.87475m    2.9698m  697.0302m  497.0747m  492.8748m 
 -492.77475m    3.1113m  696.8888m  497.1747m  492.7748m 
 -492.67475m    3.2527m  696.7473m  497.2747m  492.6748m 
 -492.57475m    3.3941m  696.6059m  497.3747m  492.5748m 
 -492.47475m    3.5355m  696.4645m  497.4747m  492.4748m 
 -492.37475m    3.6769m  696.3231m  497.5747m  492.3748m 
 -492.27475m    3.8184m  696.1817m  497.6747m  492.2748m 
 -492.17475m    3.9598m  696.0402m  497.7747m  492.1748m 
 -492.07475m    4.1012m  695.8988m  497.8747m  492.0748m 
 -491.97475m    4.2426m  695.7574m  497.9747m  491.9748m 
 -491.87475m    4.3841m  695.6160m  498.0747m  491.8748m 
 -491.77475m    4.5255m  695.4746m  498.1747m  491.7748m 
 -491.67475m    4.6669m  695.3331m  498.2747m  491.6748m 
 -491.57475m    4.8083m  695.1917m  498.3747m  491.5748m 
 -491.47475m    4.9497m  695.0503m  498.4747m  491.4748m 
 -491.37475m    5.0912m  694.9089m  498.5747m  491.3748m 
 -491.27475m    5.2326m  694.7674m  498.6747m  491.2748m 
 -491.17475m    5.3740m  694.6260m  498.7747m  491.1748m 
 -491.07475m    5.5154m  694.4846m  498.8747m  491.0748m 
 -490.97475m    5.6568m  694.3432m  498.9747m  490.9748m 
 -490.87475m    5.7983m  694.2018m  499.0747m  490.8748m 
 -490.77475m    5.9397m  694.0603m  499.1747m  490.7748m 
 -490.67475m    6.0811m  693.9189m  499.2747m  490.6748m 
 -490.57475m    6.2225m  693.7775m  499.3747m  490.5748m 
 -490.47475m    6.3640m  693.6361m  499.4747m  490.4748m 
 -490.37475m    6.5054m  693.4947m  499.5747m  490.3748m 
 -490.27475m    6.6468m  693.3532m  499.6747m  490.2748m 
 -490.17475m    6.7882m  693.2118m  499.7747m  490.1748m 
 -490.07475m    6.9296m  693.0704m  499.8747m  490.0748m 
 -489.97475m    7.0711m  692.9290m  499.9747m  489.9748m 
 -489.87475m    7.2125m  692.7876m  500.0747m  489.8748m 
 -489.77475m    7.3539m  692.6461m  500.1747m  489.7748m 
 -489.67475m    7.4953m  692.5047m  500.2747m  489.6748m 
 -489.57475m    7.6367m  692.3633m  500.3747m  489.5748m 
 -489.47475m    7.7782m  692.2219m  500.4747m  489.4748m 
 -489.37475m    7.9196m  692.0804m  500.5747m  489.3748m 
 -489.27475m    8.0610m  691.9390m  500.6747m  489.2748m 
 -489.17475m    8.2024m  691.7976m  500.7747m  489.1748m 
 -489.07475m    8.3438m  691.6562m  500.8747m  489.0748m 
 -488.97475m    8.4853m  691.5148m  500.9747m  488.9748m 
 -488.87475m    8.6267m  691.3733m  501.0747m  488.8748m 
 -488.77475m    8.7681m  691.2319m  501.1747m  488.7748m 
 -488.67475m    8.9095m  691.0905m  501.2747m  488.6748m 
 -488.57475m    9.0510m  690.9491m  501.3747m  488.5748m 
 -488.47475m    9.1924m  690.8077m  501.4747m  488.4748m 
 -488.37475m    9.3338m  690.6662m  501.5747m  488.3748m 
 -488.27475m    9.4752m  690.5248m  501.6747m  488.2748m 
 -488.17475m    9.6166m  690.3834m  501.7747m  488.1748m 
 -488.07475m    9.7581m  690.2420m  501.8747m  488.0748m 
 -487.97475m    9.8995m  690.1005m  501.9747m  487.9748m 
 -487.87475m   10.0409m  689.9591m  502.0747m  487.8748m 
 -487.77475m   10.1823m  689.8177m  502.1747m  487.7748m 
 -487.67475m   10.3237m  689.6763m  502.2747m  487.6748m 
 -487.57475m   10.4652m  689.5349m  502.3747m  487.5748m 
 -487.47475m   10.6066m  689.3934m  502.4747m  487.4748m 
 -487.37475m   10.7480m  689.2520m  502.5747m  487.3748m 
 -487.27475m   10.8894m  689.1106m  502.6747m  487.2748m 
 -487.17475m   11.0309m  688.9692m  502.7747m  487.1748m 
 -487.07475m   11.1723m  688.8278m  502.8747m  487.0748m 
 -486.97475m   11.3137m  688.6863m  502.9747m  486.9748m 
 -486.87475m   11.4551m  688.5449m  503.0747m  486.8748m 
 -486.77475m   11.5965m  688.4035m  503.1747m  486.7748m 
 -486.67475m   11.7380m  688.2621m  503.2747m  486.6748m 
 -486.57475m   11.8794m  688.1207m  503.3747m  486.5748m 
 -486.47475m   12.0208m  687.9792m  503.4747m  486.4748m 
 -486.37475m   12.1622m  687.8378m  503.5747m  486.3748m 
 -486.27475m   12.3036m  687.6964m  503.6747m  486.2748m 
 -486.17475m   12.4451m  687.5550m  503.7747m  486.1748m 
 -486.07475m   12.5865m  687.4135m  503.8747m  486.0748m 
 -485.97475m   12.7279m  687.2721m  503.9747m  485.9748m 
 -485.87475m   12.8693m  687.1307m  504.0747m  485.8748m 
 -485.77475m   13.0108m  686.9893m  504.1747m  485.7748m 
 -485.67475m   13.1522m  686.8479m  504.2747m  485.6748m 
 -485.57475m   13.2936m  686.7064m  504.3747m  485.5748m 
 -485.47475m   13.4350m  686.5650m  504.4747m  485.4748m 
 -485.37475m   13.5764m  686.4236m  504.5747m  485.3748m 
 -485.27475m   13.7179m  686.2822m  504.6747m  485.2748m 
 -485.17475m   13.8593m  686.1408m  504.7747m  485.1748m 
 -485.07475m   14.0007m  685.9993m  504.8747m  485.0748m 
 -484.97475m   14.1421m  685.8579m  504.9747m  484.9748m 
 -484.87475m   14.2835m  685.7165m  505.0747m  484.8748m 
 -484.77475m   14.4250m  685.5751m  505.1747m  484.7748m 
 -484.67475m   14.5664m  685.4337m  505.2747m  484.6748m 
 -484.57475m   14.7078m  685.2922m  505.3747m  484.5748m 
 -484.47475m   14.8492m  685.1508m  505.4747m  484.4748m 
 -484.37475m   14.9906m  685.0094m  505.5747m  484.3748m 
 -484.27475m   15.1321m  684.8680m  505.6747m  484.2748m 
 -484.17475m   15.2735m  684.7265m  505.7747m  484.1748m 
 -484.07475m   15.4149m  684.5851m  505.8747m  484.0748m 
 -483.97475m   15.5563m  684.4437m  505.9747m  483.9748m 
 -483.87475m   15.6978m  684.3023m  506.0747m  483.8748m 
 -483.77475m   15.8392m  684.1609m  506.1747m  483.7748m 
 -483.67475m   15.9806m  684.0194m  506.2747m  483.6748m 
 -483.57475m   16.1220m  683.8780m  506.3747m  483.5748m 
 -483.47475m   16.2634m  683.7366m  506.4747m  483.4748m 
 -483.37475m   16.4049m  683.5952m  506.5747m  483.3748m 
 -483.27475m   16.5463m  683.4538m  506.6747m  483.2748m 
 -483.17475m   16.6877m  683.3123m  506.7747m  483.1748m 
 -483.07475m   16.8291m  683.1709m  506.8747m  483.0748m 
 -482.97475m   16.9705m  683.0295m  506.9747m  482.9748m 
 -482.87475m   17.1120m  682.8881m  507.0747m  482.8748m 
 -482.77475m   17.2534m  682.7467m  507.1747m  482.7748m 
 -482.67475m   17.3948m  682.6052m  507.2747m  482.6748m 
 -482.57475m   17.5362m  682.4638m  507.3747m  482.5748m 
 -482.47475m   17.6777m  682.3224m  507.4747m  482.4748m 
 -482.37475m   17.8191m  682.1810m  507.5747m  482.3748m 
 -482.27475m   17.9605m  682.0395m  507.6747m  482.2748m 
 -482.17475m   18.1019m  681.8981m  507.7747m  482.1748m 
 -482.07475m   18.2433m  681.7567m  507.8747m  482.0748m 
 -481.97475m   18.3848m  681.6153m  507.9747m  481.9748m 
 -481.87475m   18.5262m  681.4739m  508.0747m  481.8748m 
 -481.77475m   18.6676m  681.3324m  508.1747m  481.7748m 
 -481.67475m   18.8090m  681.1910m  508.2747m  481.6748m 
 -481.57475m   18.9504m  681.0496m  508.3747m  481.5748m 
 -481.47475m   19.0919m  680.9082m  508.4747m  481.4748m 
 -481.37475m   19.2333m  680.7668m  508.5747m  481.3748m 
 -481.27475m   19.3747m  680.6253m  508.6747m  481.2748m 
 -481.17475m   19.5161m  680.4839m  508.7747m  481.1748m 
 -481.07475m   19.6576m  680.3425m  508.8747m  481.0748m 
 -480.97475m   19.7990m  680.2011m  508.9747m  480.9748m 
 -480.87475m   19.9404m  680.0597m  509.0747m  480.8748m 
 -480.77475m   20.0818m  679.9182m  509.1747m  480.7748m 
 -480.67475m   20.2232m  679.7768m  509.2747m  480.6748m 
 -480.57475m   20.3647m  679.6354m  509.3747m  480.5748m 
 -480.47475m   20.5061m  679.4940m  509.4747m  480.4748m 
 -480.37475m   20.6475m  679.3525m  509.5747m  480.3748m 
 -480.27475m   20.7889m  679.2111m  509.6747m  480.2748m 
 -480.17475m   20.9303m  679.0697m  509.7747m  480.1748m 
 -480.07475m   21.0718m  678.9283m  509.8747m  480.0748m 
 -479.97475m   21.2132m  678.7869m  509.9747m  479.9748m 
 -479.87475m   21.3546m  678.6454m  510.0747m  479.8748m 
 -479.77475m   21.4960m  678.5040m  510.1747m  479.7748m 
 -479.67475m   21.6375m  678.3626m  510.2747m  479.6748m 
 -479.57475m   21.7789m  678.2212m  510.3747m  479.5748m 
 -479.47475m   21.9203m  678.0798m  510.4747m  479.4748m 
 -479.37475m   22.0617m  677.9383m  510.5747m  479.3748m 
 -479.27475m   22.2031m  677.7969m  510.6747m  479.2748m 
 -479.17475m   22.3446m  677.6555m  510.7747m  479.1748m 
 -479.07475m   22.4860m  677.5141m  510.8747m  479.0748m 
 -478.97475m   22.6274m  677.3727m  510.9747m  478.9748m 
 -478.87475m   22.7688m  677.2312m  511.0747m  478.8748m 
 -478.77475m   22.9102m  677.0898m  511.1747m  478.7748m 
 -478.67475m   23.0517m  676.9484m  511.2747m  478.6748m 
 -478.57475m   23.1931m  676.8070m  511.3747m  478.5748m 
 -478.47475m   23.3345m  676.6655m  511.4747m  478.4748m 
 -478.37475m   23.4759m  676.5241m  511.5747m  478.3748m 
 -478.27475m   23.6173m  676.3827m  511.6747m  478.2748m 
 -478.17475m   23.7588m  676.2413m  511.7747m  478.1748m 
 -478.07475m   23.9002m  676.0999m  511.8747m  478.0748m 
 -477.97475m   24.0416m  675.9584m  511.9747m  477.9748m 
 -477.87475m   24.1830m  675.8170m  512.0747m  477.8749m 
 -477.77475m   24.3245m  675.6756m  512.1747m  477.7749m 
 -477.67475m   24.4659m  675.5342m  512.2747m  477.6749m 
 -477.57475m   24.6073m  675.3928m  512.3747m  477.5749m 
 -477.47475m   24.7487m  675.2513m  512.4747m  477.4749m 
 -477.37475m   24.8901m  675.1099m  512.5747m  477.3749m 
 -477.27475m   25.0316m  674.9685m  512.6747m  477.2749m 
 -477.17475m   25.1730m  674.8271m  512.7747m  477.1749m 
 -477.07475m   25.3144m  674.6857m  512.8747m  477.0749m 
 -476.97475m   25.4558m  674.5442m  512.9747m  476.9749m 
 -476.87475m   25.5972m  674.4028m  513.0747m  476.8749m 
 -476.77475m   25.7387m  674.2614m  513.1747m  476.7749m 
 -476.67475m   25.8801m  674.1200m  513.2747m  476.6749m 
 -476.57475m   26.0215m  673.9785m  513.3747m  476.5749m 
 -476.47475m   26.1629m  673.8371m  513.4747m  476.4749m 
 -476.37475m   26.3044m  673.6957m  513.5747m  476.3749m 
 -476.27475m   26.4458m  673.5543m  513.6747m  476.2749m 
 -476.17475m   26.5872m  673.4129m  513.7747m  476.1749m 
 -476.07475m   26.7286m  673.2714m  513.8747m  476.0749m 
 -475.97475m   26.8700m  673.1300m  513.9747m  475.9749m 
 -475.87475m   27.0115m  672.9886m  514.0747m  475.8749m 
 -475.77475m   27.1529m  672.8472m  514.1747m  475.7749m 
 -475.67475m   27.2943m  672.7058m  514.2747m  475.6749m 
 -475.57475m   27.4357m  672.5643m  514.3747m  475.5749m 
 -475.47475m   27.5771m  672.4229m  514.4747m  475.4749m 
 -475.37475m   27.7186m  672.2815m  514.5747m  475.3749m 
 -475.27475m   27.8600m  672.1401m  514.6747m  475.2749m 
 -475.17475m   28.0014m  671.9987m  514.7747m  475.1749m 
 -475.07475m   28.1428m  671.8572m  514.8747m  475.0749m 
 -474.97475m   28.2842m  671.7158m  514.9747m  474.9749m 
 -474.87475m   28.4257m  671.5744m  515.0747m  474.8749m 
 -474.77475m   28.5671m  671.4330m  515.1747m  474.7749m 
 -474.67475m   28.7085m  671.2916m  515.2747m  474.6749m 
 -474.57475m   28.8499m  671.1501m  515.3747m  474.5749m 
 -474.47475m   28.9914m  671.0087m  515.4747m  474.4749m 
 -474.37475m   29.1328m  670.8673m  515.5747m  474.3749m 
 -474.27475m   29.2742m  670.7259m  515.6747m  474.2749m 
 -474.17475m   29.4156m  670.5844m  515.7747m  474.1749m 
 -474.07475m   29.5570m  670.4430m  515.8747m  474.0749m 
 -473.97475m   29.6985m  670.3016m  515.9747m  473.9749m 
 -473.87475m   29.8399m  670.1602m  516.0747m  473.8749m 
 -473.77475m   29.9813m  670.0188m  516.1747m  473.7749m 
 -473.67475m   30.1227m  669.8773m  516.2747m  473.6749m 
 -473.57475m   30.2641m  669.7359m  516.3747m  473.5749m 
 -473.47475m   30.4056m  669.5945m  516.4747m  473.4749m 
 -473.37475m   30.5470m  669.4531m  516.5747m  473.3749m 
 -473.27475m   30.6884m  669.3117m  516.6747m  473.2749m 
 -473.17475m   30.8298m  669.1702m  516.7747m  473.1749m 
 -473.07475m   30.9713m  669.0288m  516.8747m  473.0749m 
 -472.97475m   31.1127m  668.8874m  516.9747m  472.9749m 
 -472.87475m   31.2541m  668.7460m  517.0747m  472.8749m 
 -472.77475m   31.3955m  668.6046m  517.1747m  472.7749m 
 -472.67475m   31.5369m  668.4631m  517.2747m  472.6749m 
 -472.57475m   31.6784m  668.3217m  517.3747m  472.5749m 
 -472.47475m   31.8198m  668.1803m  517.4747m  472.4749m 
 -472.37475m   31.9612m  668.0389m  517.5747m  472.3749m 
 -472.27475m   32.1026m  667.8975m  517.6747m  472.2749m 
 -472.17475m   32.2440m  667.7560m  517.7747m  472.1749m 
 -472.07475m   32.3855m  667.6146m  517.8747m  472.0749m 
 -471.97475m   32.5269m  667.4732m  517.9747m  471.9749m 
 -471.87475m   32.6683m  667.3318m  518.0747m  471.8749m 
 -471.77475m   32.8097m  667.1903m  518.1747m  471.7749m 
 -471.67475m   32.9512m  667.0489m  518.2747m  471.6749m 
 -471.57475m   33.0926m  666.9075m  518.3747m  471.5749m 
 -471.47475m   33.2340m  666.7661m  518.4747m  471.4749m 
 -471.37475m   33.3754m  666.6247m  518.5747m  471.3749m 
 -471.27475m   33.5168m  666.4832m  518.6747m  471.2749m 
 -471.17475m   33.6583m  666.3418m  518.7747m  471.1749m 
 -471.07475m   33.7997m  666.2004m  518.8747m  471.0749m 
 -470.97475m   33.9411m  666.0590m  518.9747m  470.9749m 
 -470.87475m   34.0825m  665.9176m  519.0747m  470.8749m 
 -470.77475m   34.2239m  665.7761m  519.1747m  470.7749m 
 -470.67475m   34.3654m  665.6347m  519.2747m  470.6749m 
 -470.57475m   34.5068m  665.4933m  519.3747m  470.5749m 
 -470.47475m   34.6482m  665.3519m  519.4747m  470.4749m 
 -470.37475m   34.7896m  665.2105m  519.5747m  470.3749m 
 -470.27475m   34.9310m  665.0690m  519.6747m  470.2749m 
 -470.17475m   35.0725m  664.9276m  519.7747m  470.1749m 
 -470.07475m   35.2139m  664.7862m  519.8747m  470.0749m 
 -469.97475m   35.3553m  664.6448m  519.9747m  469.9749m 
 -469.87475m   35.4967m  664.5034m  520.0747m  469.8749m 
 -469.77475m   35.6382m  664.3619m  520.1747m  469.7749m 
 -469.67475m   35.7796m  664.2205m  520.2747m  469.6749m 
 -469.57475m   35.9210m  664.0791m  520.3747m  469.5749m 
 -469.47475m   36.0624m  663.9377m  520.4747m  469.4749m 
 -469.37475m   36.2038m  663.7962m  520.5747m  469.3749m 
 -469.27475m   36.3453m  663.6548m  520.6747m  469.2749m 
 -469.17475m   36.4867m  663.5134m  520.7747m  469.1749m 
 -469.07475m   36.6281m  663.3720m  520.8747m  469.0749m 
 -468.97475m   36.7695m  663.2306m  520.9747m  468.9749m 
 -468.87475m   36.9109m  663.0891m  521.0747m  468.8749m 
 -468.77475m   37.0524m  662.9477m  521.1747m  468.7749m 
 -468.67475m   37.1938m  662.8063m  521.2747m  468.6749m 
 -468.57475m   37.3352m  662.6649m  521.3747m  468.5749m 
 -468.47475m   37.4766m  662.5235m  521.4747m  468.4749m 
 -468.37475m   37.6181m  662.3820m  521.5747m  468.3749m 
 -468.27475m   37.7595m  662.2406m  521.6747m  468.2749m 
 -468.17475m   37.9009m  662.0992m  521.7747m  468.1749m 
 -468.07475m   38.0423m  661.9578m  521.8747m  468.0749m 
 -467.97475m   38.1837m  661.8164m  521.9747m  467.9749m 
 -467.87475m   38.3252m  661.6749m  522.0747m  467.8749m 
 -467.77475m   38.4666m  661.5335m  522.1747m  467.7749m 
 -467.67475m   38.6080m  661.3921m  522.2747m  467.6749m 
 -467.57475m   38.7494m  661.2507m  522.3747m  467.5749m 
 -467.47475m   38.8908m  661.1093m  522.4747m  467.4749m 
 -467.37475m   39.0323m  660.9678m  522.5747m  467.3749m 
 -467.27475m   39.1737m  660.8264m  522.6747m  467.2749m 
 -467.17475m   39.3151m  660.6850m  522.7747m  467.1749m 
 -467.07475m   39.4565m  660.5436m  522.8747m  467.0749m 
 -466.97475m   39.5979m  660.4022m  522.9747m  466.9749m 
 -466.87475m   39.7394m  660.2607m  523.0747m  466.8749m 
 -466.77475m   39.8808m  660.1193m  523.1747m  466.7749m 
 -466.67475m   40.0222m  659.9779m  523.2747m  466.6749m 
 -466.57475m   40.1636m  659.8365m  523.3747m  466.5749m 
 -466.47475m   40.3051m  659.6950m  523.4747m  466.4749m 
 -466.37475m   40.4465m  659.5536m  523.5747m  466.3749m 
 -466.27475m   40.5879m  659.4122m  523.6747m  466.2749m 
 -466.17475m   40.7293m  659.2708m  523.7747m  466.1749m 
 -466.07475m   40.8707m  659.1294m  523.8747m  466.0749m 
 -465.97475m   41.0122m  658.9879m  523.9747m  465.9749m 
 -465.87475m   41.1536m  658.8465m  524.0747m  465.8749m 
 -465.77475m   41.2950m  658.7051m  524.1747m  465.7749m 
 -465.67475m   41.4364m  658.5637m  524.2747m  465.6749m 
 -465.57475m   41.5778m  658.4223m  524.3747m  465.5749m 
 -465.47475m   41.7193m  658.2808m  524.4747m  465.4749m 
 -465.37475m   41.8607m  658.1394m  524.5747m  465.3749m 
 -465.27475m   42.0021m  657.9980m  524.6747m  465.2750m 
 -465.17475m   42.1435m  657.8566m  524.7747m  465.1750m 
 -465.07475m   42.2849m  657.7152m  524.8747m  465.0750m 
 -464.97475m   42.4264m  657.5737m  524.9747m  464.9750m 
 -464.87475m   42.5678m  657.4323m  525.0747m  464.8750m 
 -464.77475m   42.7092m  657.2909m  525.1747m  464.7750m 
 -464.67475m   42.8506m  657.1495m  525.2747m  464.6750m 
 -464.57475m   42.9921m  657.0081m  525.3747m  464.5750m 
 -464.47475m   43.1335m  656.8666m  525.4747m  464.4750m 
 -464.37475m   43.2749m  656.7252m  525.5747m  464.3750m 
 -464.27475m   43.4163m  656.5838m  525.6747m  464.2750m 
 -464.17475m   43.5577m  656.4424m  525.7747m  464.1750m 
 -464.07475m   43.6992m  656.3010m  525.8747m  464.0750m 
 -463.97475m   43.8406m  656.1595m  525.9747m  463.9750m 
 -463.87475m   43.9820m  656.0181m  526.0747m  463.8750m 
 -463.77475m   44.1234m  655.8767m  526.1747m  463.7750m 
 -463.67475m   44.2648m  655.7353m  526.2747m  463.6750m 
 -463.57475m   44.4063m  655.5939m  526.3747m  463.5750m 
